freq/Hz	Re(Z)/Ohm	-Im(Z)/Ohm	|Z|/Ohm	Phase(Z)/deg	time/s	<Ewe>/V	<I>/mA	Cs/µF	Cp/µF	cycle number	I Range	|Ewe|/V	|I|/A	Ns	(Q-Qo)/mA.h	Re(Y)/Ohm-1	Im(Y)/Ohm-1	|Y|/Ohm-1	Phase(Y)/deg	Re(C)/nF	Im(C)/nF	|C|/nF	Phase(C)/deg	Re(M)	Im(M)	|M|	Phase(M)/deg	Re(Permittivity)	Im(Permittivity)	|Permittivity|	Phase(Permittivity)/deg	Re(Resistivity)/Ohm.cm	Im(Resistivity)/Ohm.cm	|Resistivity|/Ohm.cm	Phase(Resistivity)/deg	Re(Conductivity)/mS/cm	Im(Conductivity)/mS/cm	|Conductivity|/mS/cm	Phase(Conductivity)/deg	Tan(Delta)	Loss Angle(Delta)/deg	dq/mA.h	Pwe/W	Rwe/Ohm	
1.0000371E+005	6.7456436E+000	2.2728488E+000	7.1182547E+000	-1.8620512E+001	5.166888244231814E+001	2.9166427E-001	-5.7676200E-002	7.0021826E-001	7.1388379E-002	1.000000000000000E+000	10	9.0702670E-003	1.2742262E-003	0	-2.385510509951402E-005	1.3313012E-001	4.4856302E-002	1.4048387E-001	1.8620512E+001	7.1388374E+001	2.1187531E+002	2.2357872E+002	-7.1379486E+001	0.0000000E+000	0.0000000E+000	0.0000000E+000	7.1379486E+001	0.0000000E+000	0.0000000E+000	0.0000000E+000	-7.1379486E+001	0.0000000E+000	0.0000000E+000	0.0000000E+000	-1.8620512E+001	0.0000000E+000	0.0000000E+000	0.0000000E+000	1.8620512E+001	2.9679244E+000	7.1379486E+001	-2.385510509951402E-005	-1.6822087E-005	5.0569258E+003
6.8261953E+004	6.8281999E+000	3.3785663E+000	7.6183348E+000	-2.6326023E+001	5.210587467640289E+001	2.9166019E-001	-5.7449128E-002	6.9009519E-001	1.3572310E-001	1.000000000000000E+000	10	1.0505061E-002	1.3789182E-003	0	-3.178882106534568E-005	1.1764843E-001	5.8211979E-002	1.3126229E-001	2.6326023E+001	1.3572310E+002	2.7430109E+002	3.0604224E+002	-6.3673977E+001	0.0000000E+000	0.0000000E+000	0.0000000E+000	6.3673977E+001	0.0000000E+000	0.0000000E+000	0.0000000E+000	-6.3673977E+001	0.0000000E+000	0.0000000E+000	0.0000000E+000	-2.6326023E+001	0.0000000E+000	0.0000000E+000	0.0000000E+000	2.6326023E+001	2.0210347E+000	6.3673981E+001	-7.933715965831655E-006	-1.6755625E-005	5.0768428E+003
4.6596645E+004	6.9659286E+000	4.9317832E+000	8.5350246E+000	-3.5297977E+001	5.254389299053582E+001	2.9165748E-001	-5.7836264E-002	6.9256657E-001	2.3123838E-001	1.000000000000000E+000	10	1.0807862E-002	1.2662953E-003	0	-3.778861571281676E-005	9.5624559E-002	6.7700893E-002	1.1716428E-001	3.5297977E+001	2.3123837E+002	3.2661411E+002	4.0018491E+002	-5.4702023E+001	0.0000000E+000	0.0000000E+000	0.0000000E+000	5.4702023E+001	0.0000000E+000	0.0000000E+000	0.0000000E+000	-5.4702023E+001	0.0000000E+000	0.0000000E+000	0.0000000E+000	-3.5297977E+001	0.0000000E+000	0.0000000E+000	0.0000000E+000	3.5297977E+001	1.4124564E+000	5.4702026E+001	-5.999794647471084E-006	-1.6868378E-005	5.0428130E+003
3.1806711E+004	7.1924281E+000	7.1416101E+000	1.0135759E+001	-4.4796871E+001	5.298089271798381E+001	2.9165861E-001	-5.7564534E-002	7.0065665E-001	3.4784433E-001	1.000000000000000E+000	10	1.0848169E-002	1.0702867E-003	0	-4.519284549034718E-005	7.0010461E-002	6.9515802E-002	9.8660588E-002	4.4796871E+001	3.4784433E+002	3.5031949E+002	4.9367947E+002	-4.5203129E+001	0.0000000E+000	0.0000000E+000	0.0000000E+000	4.5203129E+001	0.0000000E+000	0.0000000E+000	0.0000000E+000	-4.5203129E+001	0.0000000E+000	0.0000000E+000	0.0000000E+000	-4.4796871E+001	0.0000000E+000	0.0000000E+000	0.0000000E+000	4.4796871E+001	1.0071157E+000	4.5203125E+001	-7.404229777530416E-006	-1.6789192E-005	5.0666372E+003
2.1711699E+004	7.5675421E+000	1.0322225E+001	1.2799063E+001	-5.3753704E+001	5.341787577871582E+001	2.9167199E-001	-5.7741355E-002	7.1015483E-001	4.6189505E-001	1.000000000000000E+000	10	1.0678494E-002	8.3431846E-004	0	-5.370749916468210E-005	4.6195377E-002	6.3011087E-002	7.8130722E-002	5.3753704E+001	4.6189499E+002	3.3862949E+002	5.7272760E+002	-3.6246296E+001	0.0000000E+000	0.0000000E+000	0.0000000E+000	3.6246296E+001	0.0000000E+000	0.0000000E+000	0.0000000E+000	-3.6246296E+001	0.0000000E+000	0.0000000E+000	0.0000000E+000	-5.3753704E+001	0.0000000E+000	0.0000000E+000	0.0000000E+000	5.3753704E+001	7.3313093E-001	3.6246292E+001	-8.514653674334923E-006	-1.6841535E-005	5.0513535E+003
1.4817771E+004	8.1992550E+000	1.4848479E+001	1.6961872E+001	-6.1092743E+001	5.385488070614520E+001	2.9167131E-001	-5.7475209E-002	7.2336131E-001	5.5433422E-001	1.000000000000000E+000	10	1.0188896E-002	6.0069410E-004	0	-5.968489515250419E-005	2.8498815E-002	5.1610064E-002	5.8955755E-002	6.1092743E+001	5.5433417E+002	3.0610052E+002	6.3323291E+002	-2.8907257E+001	0.0000000E+000	0.0000000E+000	0.0000000E+000	2.8907257E+001	0.0000000E+000	0.0000000E+000	0.0000000E+000	-2.8907257E+001	0.0000000E+000	0.0000000E+000	0.0000000E+000	-6.1092743E+001	0.0000000E+000	0.0000000E+000	0.0000000E+000	6.1092743E+001	5.5219495E-001	2.8907257E+001	-5.977395987822089E-006	-1.6763870E-005	5.0747324E+003
1.0113567E+004	9.3297901E+000	2.1300369E+001	2.3254047E+001	-6.6346069E+001	5.415087482691160E+001	2.9166374E-001	-5.8608696E-002	7.3880297E-001	6.1987740E-001	1.000000000000000E+000	10	9.5249619E-003	4.0960449E-004	0	-6.389699242354901E-005	1.7253401E-002	3.9390367E-002	4.3003265E-002	6.6346069E+001	6.1987744E+002	2.7151291E+002	6.7673279E+002	-2.3653931E+001	0.0000000E+000	0.0000000E+000	0.0000000E+000	2.3653931E+001	0.0000000E+000	0.0000000E+000	0.0000000E+000	-2.3653931E+001	0.0000000E+000	0.0000000E+000	0.0000000E+000	-6.6346069E+001	0.0000000E+000	0.0000000E+000	0.0000000E+000	6.6346069E+001	4.3801072E-001	2.3653931E+001	-4.212097271044815E-006	-1.7094031E-005	4.9764585E+003
6.9048516E+003	1.1290890E+001	3.0433884E+001	3.2460831E+001	-6.9645279E+001	5.469886055958341E+001	2.9166433E-001	-5.2498303E-002	7.5737053E-001	6.6573888E-001	1.000000000000000E+000	10	9.9346722E-003	3.0605108E-004	0	-7.161631040620906E-005	1.0715414E-002	2.8882723E-002	3.0806359E-002	6.9645279E+001	6.6573889E+002	2.4698737E+002	7.1007819E+002	-2.0354721E+001	0.0000000E+000	0.0000000E+000	0.0000000E+000	2.0354721E+001	0.0000000E+000	0.0000000E+000	0.0000000E+000	-2.0354721E+001	0.0000000E+000	0.0000000E+000	0.0000000E+000	-6.9645279E+001	0.0000000E+000	0.0000000E+000	0.0000000E+000	6.9645279E+001	3.7099734E-001	2.0354721E+001	-7.719317982660058E-006	-1.5311882E-005	5.5556904E+003
4.7165098E+003	1.4818528E+001	4.3257927E+001	4.5725670E+001	-7.1090477E+001	5.564709812467481E+001	2.9169548E-001	-6.7867078E-002	7.8007019E-001	6.9814390E-001	1.000000000000000E+000	11	1.0034698E-002	2.1945438E-004	0	-8.776839637799194E-005	7.0873681E-003	2.0689286E-002	2.1869553E-002	7.1090477E+001	6.9814386E+002	2.3915773E+002	7.3797107E+002	-1.8909523E+001	0.0000000E+000	0.0000000E+000	0.0000000E+000	1.8909523E+001	0.0000000E+000	0.0000000E+000	0.0000000E+000	-1.8909523E+001	0.0000000E+000	0.0000000E+000	0.0000000E+000	-7.1090477E+001	0.0000000E+000	0.0000000E+000	0.0000000E+000	7.1090477E+001	3.4256214E-001	1.8909515E+001	-1.615208597178288E-005	-1.9796520E-005	4.2980410E+003
3.2169119E+003	2.1378550E+001	6.0906345E+001	6.4549400E+001	-7.0658577E+001	5.611435766684008E+001	2.9168808E-001	-6.7656554E-002	8.1230366E-001	7.2320110E-001	1.000000000000000E+000	11	9.0762582E-003	1.4060948E-004	0	-9.641283839164679E-005	5.1309019E-003	1.4617669E-002	1.5492011E-002	7.0658577E+001	7.2320111E+002	2.5384854E+002	7.6645868E+002	-1.9341423E+001	0.0000000E+000	0.0000000E+000	0.0000000E+000	1.9341423E+001	0.0000000E+000	0.0000000E+000	0.0000000E+000	-1.9341423E+001	0.0000000E+000	0.0000000E+000	0.0000000E+000	-7.0658577E+001	0.0000000E+000	0.0000000E+000	0.0000000E+000	7.0658577E+001	3.5100693E-001	1.9341431E+001	-8.644442013654852E-006	-1.9734611E-005	4.3113057E+003
2.1957024E+003	3.3190289E+001	8.4296326E+001	9.0595062E+001	-6.8508781E+001	5.680606767305289E+001	2.9168814E-001	-6.7823298E-002	8.5988033E-001	7.4446839E-001	1.000000000000000E+000	11	9.9726440E-003	1.1007933E-004	0	-1.092845506326642E-004	4.0439139E-003	1.0270690E-002	1.1038129E-002	6.8508781E+001	7.4446838E+002	2.9312210E+002	8.0009607E+002	-2.1491219E+001	0.0000000E+000	0.0000000E+000	0.0000000E+000	2.1491219E+001	0.0000000E+000	0.0000000E+000	0.0000000E+000	-2.1491219E+001	0.0000000E+000	0.0000000E+000	0.0000000E+000	-6.8508781E+001	0.0000000E+000	0.0000000E+000	0.0000000E+000	6.8508781E+001	3.9373350E-001	2.1491211E+001	-1.287171224101743E-005	-1.9783252E-005	4.3007070E+003
1.5004799E+003	5.3897648E+001	1.1328342E+002	1.2545155E+002	-6.4555969E+001	5.727206966852100E+001	2.9169336E-001	-6.7879006E-002	9.3631846E-001	7.6349169E-001	1.000000000000000E+000	11	9.7533781E-003	7.7746176E-005	0	-1.179872529708114E-004	3.4246624E-003	7.1980408E-003	7.9712048E-003	6.4555969E+001	7.6349164E+002	3.6325174E+002	8.4550061E+002	-2.5444031E+001	0.0000000E+000	0.0000000E+000	0.0000000E+000	2.5444031E+001	0.0000000E+000	0.0000000E+000	0.0000000E+000	-2.5444031E+001	0.0000000E+000	0.0000000E+000	0.0000000E+000	-6.4555969E+001	0.0000000E+000	0.0000000E+000	0.0000000E+000	6.4555969E+001	4.7577700E-001	2.5444031E+001	-8.702702338147194E-006	-1.9799856E-005	4.2972544E+003
1.0240167E+003	8.8189850E+001	1.4479977E+002	1.6954181E+002	-5.8656628E+001	5.773936635736027E+001	2.9169911E-001	-6.7781381E-002	1.0733595E+000	7.8293794E-001	1.000000000000000E+000	11	9.6503869E-003	5.6920395E-005	0	-1.266233154016667E-004	3.0680681E-003	5.0374907E-003	5.8982503E-003	5.8656628E+001	7.8293793E+002	4.7684589E+002	9.1671906E+002	-3.1343372E+001	0.0000000E+000	0.0000000E+000	0.0000000E+000	3.1343372E+001	0.0000000E+000	0.0000000E+000	0.0000000E+000	-3.1343372E+001	0.0000000E+000	0.0000000E+000	0.0000000E+000	-5.8656628E+001	0.0000000E+000	0.0000000E+000	0.0000000E+000	5.8656628E+001	6.0904688E-001	3.1343369E+001	-8.636062430855329E-006	-1.9771769E-005	4.3035288E+003
6.9843555E+002	1.3809053E+002	1.7171356E+002	2.2035095E+002	-5.1194065E+001	5.820860323295346E+001	2.9169062E-001	-6.7796096E-002	1.3270558E+000	8.0587661E-001	1.000000000000000E+000	11	9.5951054E-003	4.3544653E-005	0	-1.352699007997358E-004	2.8440293E-003	3.5365089E-003	4.5382152E-003	5.1194065E+001	8.0587659E+002	6.4807886E+002	1.0341389E+003	-3.8805935E+001	0.0000000E+000	0.0000000E+000	0.0000000E+000	3.8805935E+001	0.0000000E+000	0.0000000E+000	0.0000000E+000	-3.8805935E+001	0.0000000E+000	0.0000000E+000	0.0000000E+000	-5.1194065E+001	0.0000000E+000	0.0000000E+000	0.0000000E+000	5.1194065E+001	8.0419117E-001	3.8805939E+001	-8.646585398069061E-006	-1.9775485E-005	4.3024692E+003
4.7698422E+002	2.0008739E+002	1.8336488E+002	2.7139941E+002	-4.2502892E+001	5.867530874849763E+001	2.9168758E-001	-6.7890003E-002	1.8197006E+000	8.3064312E-001	1.000000000000000E+000	11	9.5764101E-003	3.5285302E-005	0	-1.439171267738861E-004	2.7164512E-003	2.4894211E-003	3.6846064E-003	4.2502892E+001	8.3064307E+002	9.0639600E+002	1.2294396E+003	-4.7497108E+001	0.0000000E+000	0.0000000E+000	0.0000000E+000	4.7497108E+001	0.0000000E+000	0.0000000E+000	0.0000000E+000	-4.7497108E+001	0.0000000E+000	0.0000000E+000	0.0000000E+000	-4.2502892E+001	0.0000000E+000	0.0000000E+000	0.0000000E+000	4.2502892E+001	1.0911980E+000	4.7497101E+001	-8.647225974150281E-006	-1.9802670E-005	4.2964731E+003
3.2552084E+002	2.6243875E+002	1.7797740E+002	3.1709628E+002	-3.4143841E+001	5.939781990277697E+001	2.9170889E-001	-6.8579242E-002	2.7471128E+000	8.6541396E-001	1.000000000000000E+000	12	9.6596498E-003	3.0462828E-005	0	-1.568505497358063E-004	2.6100310E-003	1.7700379E-003	3.1536163E-003	3.4143841E+001	8.6541394E+002	1.2761067E+003	1.5418785E+003	-5.5856159E+001	0.0000000E+000	0.0000000E+000	0.0000000E+000	5.5856159E+001	0.0000000E+000	0.0000000E+000	0.0000000E+000	-5.5856159E+001	0.0000000E+000	0.0000000E+000	0.0000000E+000	-3.4143841E+001	0.0000000E+000	0.0000000E+000	0.0000000E+000	3.4143841E+001	1.4745622E+000	5.5856155E+001	-1.293342296192026E-005	-2.0005175E-005	4.2536035E+003
2.2234798E+002	3.1474118E+002	1.5784618E+002	3.5210428E+002	-2.6634272E+001	5.986103235149494E+001	2.9170793E-001	-6.8612434E-002	4.5347447E+000	9.1133571E-001	1.000000000000000E+000	12	9.6072201E-003	2.7285156E-005	0	-1.655155158158749E-004	2.5386976E-003	1.2731849E-003	2.8400677E-003	2.6634272E+001	9.1133569E+002	1.8171798E+003	2.0328982E+003	-6.3365730E+001	0.0000000E+000	0.0000000E+000	0.0000000E+000	6.3365730E+001	0.0000000E+000	0.0000000E+000	0.0000000E+000	-6.3365730E+001	0.0000000E+000	0.0000000E+000	0.0000000E+000	-2.6634272E+001	0.0000000E+000	0.0000000E+000	0.0000000E+000	2.6634272E+001	1.9939741E+000	6.3365730E+001	-8.664966080068560E-006	-2.0014792E-005	4.2515317E+003
1.5179730E+002	3.5227451E+002	1.3209438E+002	3.7622632E+002	-2.0554825E+001	6.032276802670094E+001	2.9171044E-001	-6.8650566E-002	7.9372811E+000	9.7845775E-001	1.000000000000000E+000	12	9.5768236E-003	2.5454954E-005	0	-1.741711622945028E-004	2.4887591E-003	9.3322416E-004	2.6579746E-003	2.0554825E+001	9.7845770E+002	2.6093896E+003	2.7868071E+003	-6.9445175E+001	0.0000000E+000	0.0000000E+000	0.0000000E+000	6.9445175E+001	0.0000000E+000	0.0000000E+000	0.0000000E+000	-6.9445175E+001	0.0000000E+000	0.0000000E+000	0.0000000E+000	-2.0554825E+001	0.0000000E+000	0.0000000E+000	0.0000000E+000	2.0554825E+001	2.6668396E+000	6.9445175E+001	-8.655646478627918E-006	-2.0026087E-005	4.2492065E+003
1.0357484E+002	3.7938617E+002	1.0901257E+002	3.9473740E+002	-1.6031441E+001	6.079689308922389E+001	2.9171047E-001	-6.8568394E-002	1.4095784E+001	1.0750431E+000	1.000000000000000E+000	12	9.5727397E-003	2.4250907E-005	0	-1.830432744955898E-004	2.4348095E-003	6.9961656E-004	2.5333299E-003	1.6031441E+001	1.0750432E+003	3.7413716E+003	3.8927598E+003	-7.3968559E+001	0.0000000E+000	0.0000000E+000	0.0000000E+000	7.3968559E+001	0.0000000E+000	0.0000000E+000	0.0000000E+000	-7.3968559E+001	0.0000000E+000	0.0000000E+000	0.0000000E+000	-1.6031441E+001	0.0000000E+000	0.0000000E+000	0.0000000E+000	1.6031441E+001	3.4802055E+000	7.3968559E+001	-8.872112201086955E-006	-2.0002119E-005	4.2542993E+003
7.0747063E+001	3.9794958E+002	9.0806763E+001	4.0817856E+002	-1.2854046E+001	6.126002697794502E+001	2.9171357E-001	-6.8579242E-002	2.4773851E+001	1.2261103E+000	1.000000000000000E+000	12	9.5669413E-003	2.3438128E-005	0	-1.917346249695005E-004	2.3885134E-003	5.4502679E-004	2.4499083E-003	1.2854046E+001	1.2261107E+003	5.3732788E+003	5.5113950E+003	-7.7145950E+001	0.0000000E+000	0.0000000E+000	0.0000000E+000	7.7145950E+001	0.0000000E+000	0.0000000E+000	0.0000000E+000	-7.7145950E+001	0.0000000E+000	0.0000000E+000	0.0000000E+000	-1.2854046E+001	0.0000000E+000	0.0000000E+000	0.0000000E+000	1.2854046E+001	4.3823781E+000	7.7145950E+001	-8.691350473910759E-006	-2.0005495E-005	4.2536714E+003
4.8284920E+001	4.1160059E+002	7.9947235E+001	4.1929297E+002	-1.0991977E+001	6.174124521409976E+001	2.9170850E-001	-6.8490848E-002	4.1229225E+001	1.4989147E+000	1.000000000000000E+000	12	9.5701814E-003	2.2824570E-005	0	-2.007455200672565E-004	2.3412122E-003	4.5474534E-004	2.3849672E-003	1.0991977E+001	1.4989143E+003	7.7170171E+003	7.8612402E+003	-7.9008026E+001	0.0000000E+000	0.0000000E+000	0.0000000E+000	7.9008026E+001	0.0000000E+000	0.0000000E+000	0.0000000E+000	-7.9008026E+001	0.0000000E+000	0.0000000E+000	0.0000000E+000	-1.0991977E+001	0.0000000E+000	0.0000000E+000	0.0000000E+000	1.0991977E+001	5.1484032E+000	7.9008026E+001	-9.010895097755976E-006	-1.9979363E-005	4.2590874E+003
3.2944279E+001	4.2346991E+002	7.3231544E+001	4.2975531E+002	-9.8112440E+000	6.223462339749676E+001	2.9170963E-001	-6.8533137E-002	6.5969307E+001	1.9155602E+000	1.000000000000000E+000	12	9.5632151E-003	2.2252698E-005	0	-2.100030175256510E-004	2.2928733E-003	3.9651140E-004	2.3269055E-003	9.8112440E+000	1.9155598E+003	1.1076950E+004	1.1241361E+004	-8.0188759E+001	0.0000000E+000	0.0000000E+000	0.0000000E+000	8.0188759E+001	0.0000000E+000	0.0000000E+000	0.0000000E+000	-8.0188759E+001	0.0000000E+000	0.0000000E+000	0.0000000E+000	-9.8112440E+000	0.0000000E+000	0.0000000E+000	0.0000000E+000	9.8112440E+000	5.7826161E+000	8.0188759E+001	-9.257497458394528E-006	-1.9991776E-005	4.2564756E+003
2.2482016E+001	4.3540198E+002	7.1284210E+001	4.4119873E+002	-9.2980013E+000	6.265704075096437E+001	2.9170591E-001	-6.8586454E-002	9.9309669E+001	2.5924461E+000	1.000000000000000E+000	12	9.5644286E-003	2.1678277E-005	0	-2.178470039312791E-004	2.2367728E-003	3.6620550E-004	2.2665523E-003	9.2980013E+000	2.5924470E+003	1.5834588E+004	1.6045403E+004	-8.0701996E+001	0.0000000E+000	0.0000000E+000	0.0000000E+000	8.0701996E+001	0.0000000E+000	0.0000000E+000	0.0000000E+000	-8.0701996E+001	0.0000000E+000	0.0000000E+000	0.0000000E+000	-9.2980013E+000	0.0000000E+000	0.0000000E+000	0.0000000E+000	9.2980013E+000	6.1079721E+000	8.0701996E+001	-7.843986405628049E-006	-2.0007074E-005	4.2531123E+003
1.5358784E+001	4.4786005E+002	7.4700699E+001	4.5404715E+002	-9.4694614E+000	6.311548349270015E+001	2.9171276E-001	-6.8569250E-002	1.3871986E+002	3.7547936E+000	1.000000000000000E+000	12	9.5669329E-003	2.1070351E-005	0	-2.264202232351430E-004	2.1724030E-003	3.6234540E-004	2.2024144E-003	9.4694614E+000	3.7547927E+003	2.2511463E+004	2.2822455E+004	-8.0530540E+001	0.0000000E+000	0.0000000E+000	0.0000000E+000	8.0530540E+001	0.0000000E+000	0.0000000E+000	0.0000000E+000	-8.0530540E+001	0.0000000E+000	0.0000000E+000	0.0000000E+000	-9.4694614E+000	0.0000000E+000	0.0000000E+000	0.0000000E+000	9.4694614E+000	5.9953928E+000	8.0530540E+001	-8.573219303863861E-006	-2.0002526E-005	4.2542798E+003
1.0486581E+001	4.6214117E+002	8.0709106E+001	4.6913583E+002	-9.9063234E+000	6.356484890068532E+001	2.9170382E-001	-6.8577603E-002	1.8804582E+002	5.5655942E+000	1.000000000000000E+000	12	9.5691103E-003	2.0397312E-005	0	-2.348496801038208E-004	2.0997976E-003	3.6671216E-004	2.1315787E-003	9.9063234E+000	5.5655957E+003	3.1868650E+004	3.2350992E+004	-8.0093674E+001	0.0000000E+000	0.0000000E+000	0.0000000E+000	8.0093674E+001	0.0000000E+000	0.0000000E+000	0.0000000E+000	-8.0093674E+001	0.0000000E+000	0.0000000E+000	0.0000000E+000	-9.9063234E+000	0.0000000E+000	0.0000000E+000	0.0000000E+000	9.9063234E+000	5.7260103E+000	8.0093674E+001	-8.429456868677855E-006	-2.0004349E-005	4.2536309E+003
7.1543007E+000	4.8067743E+002	9.0888641E+001	4.8919479E+002	-1.0707331E+001	6.391088649045560E+001	2.9170874E-001	-6.8483450E-002	2.4476163E+002	8.4488754E+000	1.000000000000000E+000	12	9.5655378E-003	1.9553638E-005	0	-2.415152741515016E-004	2.0085846E-003	3.7979215E-004	2.0441755E-003	1.0707331E+001	8.4488740E+003	4.4683070E+004	4.5474832E+004	-7.9292671E+001	0.0000000E+000	0.0000000E+000	0.0000000E+000	7.9292671E+001	0.0000000E+000	0.0000000E+000	0.0000000E+000	-7.9292671E+001	0.0000000E+000	0.0000000E+000	0.0000000E+000	-1.0707331E+001	0.0000000E+000	0.0000000E+000	0.0000000E+000	1.0707331E+001	5.2886415E+000	7.9292671E+001	-6.665594047680802E-006	-1.9977220E-005	4.2595508E+003
4.8828125E+000	5.0401120E+002	1.0507256E+002	5.1484711E+002	-1.1775939E+001	6.439195448663668E+001	2.9170492E-001	-6.8543233E-002	3.1021356E+002	1.2920605E+001	1.000000000000000E+000	12	9.5687248E-003	1.8585566E-005	0	-2.503886881720569E-004	1.9014445E-003	3.9639918E-004	1.9423242E-003	1.1775939E+001	1.2920605E+004	6.1977453E+004	6.3309926E+004	-7.8224060E+001	0.0000000E+000	0.0000000E+000	0.0000000E+000	7.8224060E+001	0.0000000E+000	0.0000000E+000	0.0000000E+000	-7.8224060E+001	0.0000000E+000	0.0000000E+000	0.0000000E+000	-1.1775939E+001	0.0000000E+000	0.0000000E+000	0.0000000E+000	1.1775939E+001	4.7967920E+000	7.8224060E+001	-8.873414020555261E-006	-1.9994399E-005	4.2557803E+003
3.3329778E+000	5.3174103E+002	1.1805892E+002	5.4468927E+002	-1.2517949E+001	6.506724779875367E+001	2.9171243E-001	-6.8383358E-002	4.0447238E+002	1.9001543E+001	1.000000000000000E+000	12	9.5628519E-003	1.7556527E-005	0	-2.627799858038844E-004	1.7922662E-003	3.9792494E-004	1.8359091E-003	1.2517949E+001	1.9001547E+004	8.5583531E+004	8.7667555E+004	-7.7482048E+001	0.0000000E+000	0.0000000E+000	0.0000000E+000	7.7482048E+001	0.0000000E+000	0.0000000E+000	0.0000000E+000	-7.7482048E+001	0.0000000E+000	0.0000000E+000	0.0000000E+000	-1.2517949E+001	0.0000000E+000	0.0000000E+000	0.0000000E+000	1.2517949E+001	4.5040307E+000	7.7482048E+001	-1.239129763182755E-005	-1.9948277E-005	4.2658394E+003
