freq/Hz	Re(Z)/Ohm	-Im(Z)/Ohm	|Z|/Ohm	Phase(Z)/deg	time/s	<Ewe>/V	<I>/mA	Cs/µF	Cp/µF	cycle number	I Range	|Ewe|/V	|I|/A	Ns	(Q-Qo)/mA.h	Re(Y)/Ohm-1	Im(Y)/Ohm-1	|Y|/Ohm-1	Phase(Y)/deg	Re(C)/nF	Im(C)/nF	|C|/nF	Phase(C)/deg	Re(M)	Im(M)	|M|	Phase(M)/deg	Re(Permittivity)	Im(Permittivity)	|Permittivity|	Phase(Permittivity)/deg	Re(Resistivity)/Ohm.cm	Im(Resistivity)/Ohm.cm	|Resistivity|/Ohm.cm	Phase(Resistivity)/deg	Re(Conductivity)/mS/cm	Im(Conductivity)/mS/cm	|Conductivity|/mS/cm	Phase(Conductivity)/deg	Tan(Delta)	Loss Angle(Delta)/deg	dq/mA.h	Pwe/W	Rwe/Ohm	
1.0000371E+005	6.7095671E+000	2.2928197E+000	7.0905085E+000	-1.8866526E+001	5.166887649564887E+001	2.9164717E-001	-6.5389112E-002	6.9411922E-001	7.2580367E-002	1.000000000000000E+000	10	9.0568503E-003	1.2773203E-003	0	-2.617546130857792E-005	1.3345650E-001	4.5605280E-002	1.4103360E-001	1.8866526E+001	7.2580360E+001	2.1239474E+002	2.2445364E+002	-7.1133476E+001	0.0000000E+000	0.0000000E+000	0.0000000E+000	7.1133476E+001	0.0000000E+000	0.0000000E+000	0.0000000E+000	-7.1133476E+001	0.0000000E+000	0.0000000E+000	0.0000000E+000	-1.8866526E+001	0.0000000E+000	0.0000000E+000	0.0000000E+000	1.8866526E+001	2.9263387E+000	7.1133476E+001	-2.617546130857792E-005	-1.9070549E-005	4.4601792E+003
6.8261953E+004	6.7953286E+000	3.4164715E+000	7.6058378E+000	-2.6691771E+001	5.210587475643842E+001	2.9165131E-001	-6.4934976E-002	6.8243867E-001	1.3769719E-001	1.000000000000000E+000	10	1.0515213E-002	1.3825187E-003	0	-3.665669772973181E-005	1.1746713E-001	5.9058670E-002	1.3147795E-001	2.6691771E+001	1.3769722E+002	2.7387839E+002	3.0654510E+002	-6.3308228E+001	0.0000000E+000	0.0000000E+000	0.0000000E+000	6.3308228E+001	0.0000000E+000	0.0000000E+000	0.0000000E+000	-6.3308228E+001	0.0000000E+000	0.0000000E+000	0.0000000E+000	-2.6691771E+001	0.0000000E+000	0.0000000E+000	0.0000000E+000	2.6691771E+001	1.9889903E+000	6.3308228E+001	-1.048123642115388E-005	-1.8938370E-005	4.4914360E+003
4.6596645E+004	6.9296989E+000	4.9863362E+000	8.5372286E+000	-3.5737293E+001	5.254288653717958E+001	2.9163942E-001	-6.5225326E-002	6.8498957E-001	2.3367554E-001	1.000000000000000E+000	10	1.0799546E-002	1.2649943E-003	0	-4.407375926376295E-005	9.5078111E-002	6.8414435E-002	1.1713403E-001	3.5737293E+001	2.3367552E+002	3.2474765E+002	4.0008160E+002	-5.4262707E+001	0.0000000E+000	0.0000000E+000	0.0000000E+000	5.4262707E+001	0.0000000E+000	0.0000000E+000	0.0000000E+000	-5.4262707E+001	0.0000000E+000	0.0000000E+000	0.0000000E+000	-3.5737293E+001	0.0000000E+000	0.0000000E+000	0.0000000E+000	3.5737293E+001	1.3897376E+000	5.4262711E+001	-7.417061534031140E-006	-1.9022276E-005	4.4712603E+003
3.1806711E+004	7.1470318E+000	7.2364321E+000	1.0170841E+001	-4.5356117E+001	5.297987437128904E+001	2.9165295E-001	-6.4825170E-002	6.9147569E-001	3.5003552E-001	1.000000000000000E+000	10	1.0941288E-002	1.0757506E-003	0	-5.098773958435049E-005	6.9089487E-002	6.9953710E-002	9.8320283E-002	4.5356117E+001	3.5003552E+002	3.4571109E+002	4.9197665E+002	-4.4643883E+001	0.0000000E+000	0.0000000E+000	0.0000000E+000	4.4643883E+001	0.0000000E+000	0.0000000E+000	0.0000000E+000	-4.4643883E+001	0.0000000E+000	0.0000000E+000	0.0000000E+000	-4.5356117E+001	0.0000000E+000	0.0000000E+000	0.0000000E+000	4.5356117E+001	9.8764580E-001	4.4643890E+001	-6.913980320587544E-006	-1.8906452E-005	4.4990693E+003
2.1711699E+004	7.5131655E+000	1.0457437E+001	1.2876554E+001	-5.4304569E+001	5.341689916534233E+001	2.9164639E-001	-6.5281175E-002	7.0097268E-001	4.6233022E-001	1.000000000000000E+000	10	1.0624344E-002	8.2509220E-004	0	-5.980515523119700E-005	4.5313090E-002	6.3070454E-002	7.7660531E-002	5.4304569E+001	4.6233023E+002	3.3216205E+002	5.6928101E+002	-3.5695431E+001	0.0000000E+000	0.0000000E+000	0.0000000E+000	3.5695431E+001	0.0000000E+000	0.0000000E+000	0.0000000E+000	-3.5695431E+001	0.0000000E+000	0.0000000E+000	0.0000000E+000	-5.4304569E+001	0.0000000E+000	0.0000000E+000	0.0000000E+000	5.4304569E+001	7.1845192E-001	3.5695435E+001	-8.817415646846511E-006	-1.9039018E-005	4.4675420E+003
1.4817771E+004	8.1627359E+000	1.5065936E+001	1.7135130E+001	-6.1551132E+001	5.385389609276899E+001	2.9164565E-001	-6.5167651E-002	7.1292061E-001	5.5113578E-001	1.000000000000000E+000	10	1.0198751E-002	5.9519539E-004	0	-6.742880904266430E-005	2.7801031E-002	5.1312279E-002	5.8359638E-002	6.1551132E+001	5.5113580E+002	2.9860580E+002	6.2683020E+002	-2.8448868E+001	0.0000000E+000	0.0000000E+000	0.0000000E+000	2.8448868E+001	0.0000000E+000	0.0000000E+000	0.0000000E+000	-2.8448868E+001	0.0000000E+000	0.0000000E+000	0.0000000E+000	-6.1551132E+001	0.0000000E+000	0.0000000E+000	0.0000000E+000	6.1551132E+001	5.4180080E-001	2.8448868E+001	-7.623653811467299E-006	-1.9005862E-005	4.4753130E+003
1.0113567E+004	9.2984657E+000	2.1611536E+001	2.3527004E+001	-6.6719978E+001	5.414987941351137E+001	2.9165965E-001	-6.5681353E-002	7.2816551E-001	6.1442393E-001	1.000000000000000E+000	10	9.5242411E-003	4.0482168E-004	0	-7.265154521215179E-005	1.6798791E-002	3.9043825E-002	4.2504348E-002	6.6719978E+001	6.1442395E+002	2.6435880E+002	6.6888141E+002	-2.3280022E+001	0.0000000E+000	0.0000000E+000	0.0000000E+000	2.3280022E+001	0.0000000E+000	0.0000000E+000	0.0000000E+000	-2.3280022E+001	0.0000000E+000	0.0000000E+000	0.0000000E+000	-6.6719978E+001	0.0000000E+000	0.0000000E+000	0.0000000E+000	6.6719978E+001	4.3025473E-001	2.3280029E+001	-5.222736169487483E-006	-1.9156601E-005	4.4405244E+003
6.9048516E+003	1.1263524E+001	3.0919554E+001	3.2907230E+001	-6.9984085E+001	5.469887309291516E+001	2.9165754E-001	-5.8977224E-002	7.4547416E-001	6.5813708E-001	1.000000000000000E+000	10	9.9267997E-003	3.0166015E-004	0	-8.133626251064642E-005	1.0401396E-002	2.8552921E-002	3.0388458E-002	6.9984085E+001	6.5813702E+002	2.3974933E+002	7.0044562E+002	-2.0015915E+001	0.0000000E+000	0.0000000E+000	0.0000000E+000	2.0015915E+001	0.0000000E+000	0.0000000E+000	0.0000000E+000	-2.0015915E+001	0.0000000E+000	0.0000000E+000	0.0000000E+000	-6.9984085E+001	0.0000000E+000	0.0000000E+000	0.0000000E+000	6.9984085E+001	3.6428481E-001	2.0015915E+001	-8.684717298494636E-006	-1.7201151E-005	4.9452573E+003
4.7165098E+003	1.4920300E+001	4.3893108E+001	4.6359684E+001	-7.1225899E+001	5.564710849800758E+001	2.9168341E-001	-7.5265311E-002	7.6878172E-001	6.8915164E-001	1.000000000000000E+000	11	1.0013307E-002	2.1599171E-004	0	-9.861148835340120E-005	6.9421907E-003	2.0422807E-002	2.1570466E-002	7.1225899E+001	6.8915167E+002	2.3425882E+002	7.2787860E+002	-1.8774101E+001	0.0000000E+000	0.0000000E+000	0.0000000E+000	1.8774101E+001	0.0000000E+000	0.0000000E+000	0.0000000E+000	-1.8774101E+001	0.0000000E+000	0.0000000E+000	0.0000000E+000	-7.1225899E+001	0.0000000E+000	0.0000000E+000	0.0000000E+000	7.1225899E+001	3.3992350E-001	1.8774109E+001	-1.727522584275478E-005	-2.1953641E-005	3.8754028E+003
3.2169119E+003	2.1570890E+001	6.1867798E+001	6.5520439E+001	-7.0778328E+001	5.611436361350934E+001	2.9168436E-001	-7.5208306E-002	7.9968017E-001	7.1300411E-001	1.000000000000000E+000	11	9.0662874E-003	1.3837342E-004	0	-1.081702614331492E-004	5.0247503E-003	1.4411562E-002	1.5262413E-002	7.0778328E+001	7.1300409E+002	2.4859673E+002	7.5509943E+002	-1.9221672E+001	0.0000000E+000	0.0000000E+000	0.0000000E+000	1.9221672E+001	0.0000000E+000	0.0000000E+000	0.0000000E+000	-1.9221672E+001	0.0000000E+000	0.0000000E+000	0.0000000E+000	-7.0778328E+001	0.0000000E+000	0.0000000E+000	0.0000000E+000	7.0778328E+001	3.4866104E-001	1.9221680E+001	-9.558773079747983E-006	-2.1937087E-005	3.8783530E+003
2.1957024E+003	3.3685329E+001	8.5629707E+001	9.2017105E+001	-6.8526131E+001	5.680610679305391E+001	2.9167664E-001	-7.5333133E-002	8.4649074E-001	7.3305064E-001	1.000000000000000E+000	11	9.9659115E-003	1.0830499E-004	0	-1.223887735685688E-004	3.9783567E-003	1.0113169E-002	1.0867544E-002	6.8526131E+001	7.3305060E+002	2.8837018E+002	7.8773126E+002	-2.1473869E+001	0.0000000E+000	0.0000000E+000	0.0000000E+000	2.1473869E+001	0.0000000E+000	0.0000000E+000	0.0000000E+000	-2.1473869E+001	0.0000000E+000	0.0000000E+000	0.0000000E+000	-6.8526131E+001	0.0000000E+000	0.0000000E+000	0.0000000E+000	6.8526131E+001	3.9338368E-001	2.1473877E+001	-1.421851213541958E-005	-2.1972915E-005	3.8718240E+003
1.5004799E+003	5.4883007E+001	1.1497982E+002	1.2740685E+002	-6.4483582E+001	5.727306489523471E+001	2.9167941E-001	-7.5302020E-002	9.2250419E-001	7.5132191E-001	1.000000000000000E+000	11	9.7502898E-003	7.6528777E-005	0	-1.319402948927653E-004	3.3810562E-003	7.0833075E-003	7.8488719E-003	6.4483582E+001	7.5132196E+002	3.5862650E+002	8.3252484E+002	-2.5516418E+001	0.0000000E+000	0.0000000E+000	0.0000000E+000	2.5516418E+001	0.0000000E+000	0.0000000E+000	0.0000000E+000	-2.5516418E+001	0.0000000E+000	0.0000000E+000	0.0000000E+000	-6.4483582E+001	0.0000000E+000	0.0000000E+000	0.0000000E+000	6.4483582E+001	4.7732729E-001	2.5516418E+001	-9.551521324196489E-006	-2.1964050E-005	3.8734607E+003
1.0240167E+003	8.9834526E+001	1.4643394E+002	1.7179390E+002	-5.8471653E+001	5.774032659741351E+001	2.9168111E-001	-7.5289160E-002	1.0613810E+000	7.7115089E-001	1.000000000000000E+000	11	9.6449219E-003	5.6142399E-005	0	-1.415466786961123E-004	3.0438821E-003	4.9616522E-003	5.8209286E-003	5.8471653E+001	7.7115088E+002	4.7308685E+002	9.0470154E+002	-3.1528347E+001	0.0000000E+000	0.0000000E+000	0.0000000E+000	3.1528347E+001	0.0000000E+000	0.0000000E+000	0.0000000E+000	-3.1528347E+001	0.0000000E+000	0.0000000E+000	0.0000000E+000	-5.8471653E+001	0.0000000E+000	0.0000000E+000	0.0000000E+000	5.8471653E+001	6.1348158E-001	3.1528351E+001	-9.606383803347044E-006	-2.1960426E-005	3.8741448E+003
6.9843555E+002	1.4067712E+002	1.7255930E+002	2.2263594E+002	-5.0811726E+001	5.821060059304000E+001	2.9167706E-001	-7.5313009E-002	1.3205519E+000	7.9330760E-001	1.000000000000000E+000	11	9.5985997E-003	4.3113432E-005	0	-1.511578261577201E-004	2.8381343E-003	3.4813508E-003	4.4916379E-003	5.0811726E+001	7.9330750E+002	6.4673553E+002	1.0235251E+003	-3.9188274E+001	0.0000000E+000	0.0000000E+000	0.0000000E+000	3.9188274E+001	0.0000000E+000	0.0000000E+000	0.0000000E+000	-3.9188274E+001	0.0000000E+000	0.0000000E+000	0.0000000E+000	-5.0811726E+001	0.0000000E+000	0.0000000E+000	0.0000000E+000	5.0811726E+001	8.1523931E-001	3.9188278E+001	-9.611147461607785E-006	-2.1967076E-005	3.8728643E+003
4.7698422E+002	2.0316148E+002	1.8410374E+002	2.7416925E+002	-4.2182686E+001	5.867729733526357E+001	2.9167578E-001	-7.5261213E-002	1.8123976E+000	8.1722426E-001	1.000000000000000E+000	11	9.5794201E-003	3.4939803E-005	0	-1.607391283463706E-004	2.7027377E-003	2.4492051E-003	3.6473821E-003	4.2182686E+001	8.1722424E+002	9.0182031E+002	1.2170190E+003	-4.7817314E+001	0.0000000E+000	0.0000000E+000	0.0000000E+000	4.7817314E+001	0.0000000E+000	0.0000000E+000	0.0000000E+000	-4.7817314E+001	0.0000000E+000	0.0000000E+000	0.0000000E+000	-4.2182686E+001	0.0000000E+000	0.0000000E+000	0.0000000E+000	4.2182686E+001	1.1035163E+000	4.7817322E+001	-9.581302188650529E-006	-2.1951873E-005	3.8755125E+003
3.2552084E+002	2.6581116E+002	1.7701787E+002	3.1936014E+002	-3.3661766E+001	5.939881003616028E+001	2.9169545E-001	-7.6177575E-002	2.7620034E+000	8.4858829E-001	1.000000000000000E+000	12	9.6584689E-003	3.0243189E-005	0	-1.750789057571779E-004	2.6062243E-003	1.7356240E-003	3.1312611E-003	3.3661766E+001	8.4858826E+002	1.2742456E+003	1.5309487E+003	-5.6338234E+001	0.0000000E+000	0.0000000E+000	0.0000000E+000	5.6338234E+001	0.0000000E+000	0.0000000E+000	0.0000000E+000	-5.6338234E+001	0.0000000E+000	0.0000000E+000	0.0000000E+000	-3.3661766E+001	0.0000000E+000	0.0000000E+000	0.0000000E+000	3.3661766E+001	1.5016063E+000	5.6338234E+001	-1.433977741080729E-005	-2.2220651E-005	3.8291511E+003
2.2234798E+002	3.1708044E+002	1.5617238E+002	3.5345413E+002	-2.6221737E+001	5.986203200487580E+001	2.9170376E-001	-7.6156966E-002	4.5833468E+000	8.9479804E-001	1.000000000000000E+000	12	9.6078040E-003	2.7182605E-005	0	-1.847404859763984E-004	2.5380685E-003	1.2500808E-003	2.8292213E-003	2.6221737E+001	8.9479803E+002	1.8167296E+003	2.0251345E+003	-6.3778263E+001	0.0000000E+000	0.0000000E+000	0.0000000E+000	6.3778263E+001	0.0000000E+000	0.0000000E+000	0.0000000E+000	-6.3778263E+001	0.0000000E+000	0.0000000E+000	0.0000000E+000	-2.6221737E+001	0.0000000E+000	0.0000000E+000	0.0000000E+000	2.6221737E+001	2.0303235E+000	6.3778259E+001	-9.661580219220517E-006	-2.2215274E-005	3.8302964E+003
1.5179730E+002	3.5461700E+002	1.2993674E+002	3.7767285E+002	-2.0123554E+001	6.032376216011471E+001	2.9169354E-001	-7.6108314E-002	8.0690823E+000	9.5511687E-001	1.000000000000000E+000	12	9.5873661E-003	2.5385372E-005	0	-1.943929462557005E-004	2.4861542E-003	9.1096229E-004	2.6477943E-003	2.0123554E+001	9.5511664E+002	2.6066584E+003	2.7761333E+003	-6.9876450E+001	0.0000000E+000	0.0000000E+000	0.0000000E+000	6.9876450E+001	0.0000000E+000	0.0000000E+000	0.0000000E+000	-6.9876450E+001	0.0000000E+000	0.0000000E+000	0.0000000E+000	-2.0123554E+001	0.0000000E+000	0.0000000E+000	0.0000000E+000	2.0123554E+001	2.7291512E+000	6.9876450E+001	-9.652460279302108E-006	-2.2200304E-005	3.8326106E+003
1.0357484E+002	3.8025949E+002	1.0714858E+002	3.9506720E+002	-1.5736645E+001	6.079792602258385E+001	2.9169652E-001	-7.6121718E-002	1.4341000E+001	1.0548975E+000	1.000000000000000E+000	12	9.5679145E-003	2.4218449E-005	0	-2.042183604912417E-004	2.4363410E-003	6.8650622E-004	2.5312149E-003	1.5736645E+001	1.0548978E+003	3.7437246E+003	3.8895095E+003	-7.4263351E+001	0.0000000E+000	0.0000000E+000	0.0000000E+000	7.4263351E+001	0.0000000E+000	0.0000000E+000	0.0000000E+000	-7.4263351E+001	0.0000000E+000	0.0000000E+000	0.0000000E+000	-1.5736645E+001	0.0000000E+000	0.0000000E+000	0.0000000E+000	1.5736645E+001	3.5488989E+000	7.4263351E+001	-9.825414235541168E-006	-2.2204440E-005	3.8319751E+003
7.0747063E+001	3.9810913E+002	8.9670334E+001	4.0808289E+002	-1.2693503E+001	6.126001956461187E+001	2.9169625E-001	-7.6098815E-002	2.5087820E+001	1.2113335E+000	1.000000000000000E+000	12	9.5708538E-003	2.3453211E-005	0	-2.138315107355399E-004	2.3905917E-003	5.3845823E-004	2.4504827E-003	1.2693503E+001	1.2113336E+003	5.3779541E+003	5.5126870E+003	-7.7306496E+001	0.0000000E+000	0.0000000E+000	0.0000000E+000	7.7306496E+001	0.0000000E+000	0.0000000E+000	0.0000000E+000	-7.7306496E+001	0.0000000E+000	0.0000000E+000	0.0000000E+000	-1.2693503E+001	0.0000000E+000	0.0000000E+000	0.0000000E+000	1.2693503E+001	4.4396973E+000	7.7306496E+001	-9.613150244298181E-006	-2.2197739E-005	3.8331248E+003
4.8284920E+001	4.1174313E+002	7.8037224E+001	4.1907306E+002	-1.0731914E+001	6.174225444081821E+001	2.9170546E-001	-7.6129153E-002	4.2238338E+001	1.4646403E+000	1.000000000000000E+000	12	9.5692808E-003	2.2834398E-005	0	-2.238594032321368E-004	2.3444821E-003	4.4434713E-004	2.3862189E-003	1.0731914E+001	1.4646399E+003	7.7277935E+003	7.8653647E+003	-7.9268089E+001	0.0000000E+000	0.0000000E+000	0.0000000E+000	7.9268089E+001	0.0000000E+000	0.0000000E+000	0.0000000E+000	-7.9268089E+001	0.0000000E+000	0.0000000E+000	0.0000000E+000	-1.0731914E+001	0.0000000E+000	0.0000000E+000	0.0000000E+000	1.0731914E+001	5.2762403E+000	7.9268089E+001	-1.002789249659691E-005	-2.2207290E-005	3.8317183E+003
3.2944279E+001	4.2288931E+002	7.1048401E+001	4.2881610E+002	-9.5370312E+000	6.223562579756253E+001	2.9170045E-001	-7.6040559E-002	6.7996384E+001	1.8666043E+000	1.000000000000000E+000	12	9.5639480E-003	2.2303146E-005	0	-2.340947761356975E-004	2.2997707E-003	3.8637780E-004	2.3320019E-003	9.5370312E+000	1.8666047E+003	1.1110271E+004	1.1265981E+004	-8.0462967E+001	0.0000000E+000	0.0000000E+000	0.0000000E+000	8.0462967E+001	0.0000000E+000	0.0000000E+000	0.0000000E+000	-8.0462967E+001	0.0000000E+000	0.0000000E+000	0.0000000E+000	-9.5370312E+000	0.0000000E+000	0.0000000E+000	0.0000000E+000	9.5370312E+000	5.9521298E+000	8.0462967E+001	-1.023537290356075E-005	-2.2181066E-005	3.8361167E+003
2.2482016E+001	4.3524783E+002	7.0463654E+001	4.4091473E+002	-9.1960087E+000	6.265704435096632E+001	2.9169434E-001	-7.6037556E-002	1.0046614E+002	2.5659065E+000	1.000000000000000E+000	12	9.5693264E-003	2.1703348E-005	0	-2.429087274969230E-004	2.2388622E-003	3.6245651E-004	2.2680121E-003	9.1960087E+000	2.5659060E+003	1.5849382E+004	1.6055739E+004	-8.0803993E+001	0.0000000E+000	0.0000000E+000	0.0000000E+000	8.0803993E+001	0.0000000E+000	0.0000000E+000	0.0000000E+000	-8.0803993E+001	0.0000000E+000	0.0000000E+000	0.0000000E+000	-9.1960087E+000	0.0000000E+000	0.0000000E+000	0.0000000E+000	9.1960087E+000	6.1769128E+000	8.0803993E+001	-8.813951361225515E-006	-2.2179725E-005	3.8361877E+003
1.5358784E+001	4.4726392E+002	7.4118782E+001	4.5336365E+002	-9.4093161E+000	6.311545914603630E+001	2.9169178E-001	-7.6082736E-002	1.3980898E+002	3.7367857E+000	1.000000000000000E+000	12	9.5619075E-003	2.1091033E-005	0	-2.524468739562193E-004	2.1760580E-003	3.6060758E-004	2.2057348E-003	9.4093161E+000	3.7367861E+003	2.2549338E+004	2.2856863E+004	-8.0590683E+001	0.0000000E+000	0.0000000E+000	0.0000000E+000	8.0590683E+001	0.0000000E+000	0.0000000E+000	0.0000000E+000	-8.0590683E+001	0.0000000E+000	0.0000000E+000	0.0000000E+000	-9.4093161E+000	0.0000000E+000	0.0000000E+000	0.0000000E+000	9.4093161E+000	6.0344210E+000	8.0590683E+001	-9.538146459296231E-006	-2.2192709E-005	3.8338760E+003
1.0486581E+001	4.6304941E+002	8.0562561E+001	4.7000540E+002	-9.8696775E+000	6.356486583405058E+001	2.9169327E-001	-7.6076746E-002	1.8838789E+002	5.5349512E+000	1.000000000000000E+000	12	9.5613012E-003	2.0342961E-005	0	-2.619018725924786E-004	2.0961463E-003	3.6469309E-004	2.1276351E-003	9.8696775E+000	5.5349497E+003	3.1813238E+004	3.2291141E+004	-8.0130325E+001	0.0000000E+000	0.0000000E+000	0.0000000E+000	8.0130325E+001	0.0000000E+000	0.0000000E+000	0.0000000E+000	-8.0130325E+001	0.0000000E+000	0.0000000E+000	0.0000000E+000	-9.8696775E+000	0.0000000E+000	0.0000000E+000	0.0000000E+000	9.8696775E+000	5.7476997E+000	8.0130325E+001	-9.454998636259293E-006	-2.2191074E-005	3.8341975E+003
7.1543007E+000	4.8180661E+002	8.9534836E+001	4.9005521E+002	-1.0527275E+001	6.391188219716423E+001	2.9170519E-001	-7.6046929E-002	2.4846252E+002	8.2938271E+000	1.000000000000000E+000	12	9.5663592E-003	1.9520983E-005	0	-2.689300062639066E-004	2.0062395E-003	3.7282243E-004	2.0405864E-003	1.0527275E+001	8.2938281E+003	4.4630910E+004	4.5394996E+004	-7.9472725E+001	0.0000000E+000	0.0000000E+000	0.0000000E+000	7.9472725E+001	0.0000000E+000	0.0000000E+000	0.0000000E+000	-7.9472725E+001	0.0000000E+000	0.0000000E+000	0.0000000E+000	-1.0527275E+001	0.0000000E+000	0.0000000E+000	0.0000000E+000	1.0527275E+001	5.3812194E+000	7.9472725E+001	-7.028133671427999E-006	-2.2183283E-005	3.8358577E+003
4.8828125E+000	5.0845511E+002	1.0071100E+002	5.1833319E+002	-1.1203706E+001	6.439496544681606E+001	2.9169396E-001	-7.6009341E-002	3.2364819E+002	1.2218248E+001	1.000000000000000E+000	12	9.5644370E-003	1.8452294E-005	0	-2.791132965734626E-004	1.8924943E-003	3.7485117E-004	1.9292610E-003	1.1203706E+001	1.2218247E+004	6.1685719E+004	6.2884129E+004	-7.8796295E+001	0.0000000E+000	0.0000000E+000	0.0000000E+000	7.8796295E+001	0.0000000E+000	0.0000000E+000	0.0000000E+000	-7.8796295E+001	0.0000000E+000	0.0000000E+000	0.0000000E+000	-1.1203706E+001	0.0000000E+000	0.0000000E+000	0.0000000E+000	1.1203706E+001	5.0486550E+000	7.8796295E+001	-1.018329030955605E-005	-2.2171465E-005	3.8376067E+003
3.3329778E+000	5.4209326E+002	1.0423902E+002	5.5202435E+002	-1.0884540E+001	6.507026646556915E+001	2.9169950E-001	-7.5941004E-002	4.5809692E+002	1.6334339E+001	1.000000000000000E+000	12	9.5621096E-003	1.7321898E-005	0	-2.930499262312029E-004	1.7789246E-003	3.4206908E-004	1.8115143E-003	1.0884540E+001	1.6334333E+004	8.4946445E+004	8.6502656E+004	-7.9115463E+001	0.0000000E+000	0.0000000E+000	0.0000000E+000	7.9115463E+001	0.0000000E+000	0.0000000E+000	0.0000000E+000	-7.9115463E+001	0.0000000E+000	0.0000000E+000	0.0000000E+000	-1.0884540E+001	0.0000000E+000	0.0000000E+000	0.0000000E+000	1.0884540E+001	5.2004828E+000	7.9115463E+001	-1.393662965774032E-005	-2.2151953E-005	3.8411331E+003
