freq/Hz	Re(Z)/Ohm	-Im(Z)/Ohm	|Z|/Ohm	Phase(Z)/deg	time/s	<Ewe>/V	<I>/mA	Cs/µF	Cp/µF	cycle number	I Range	|Ewe|/V	|I|/A	Ns	(Q-Qo)/mA.h	Re(Y)/Ohm-1	Im(Y)/Ohm-1	|Y|/Ohm-1	Phase(Y)/deg	Re(C)/nF	Im(C)/nF	|C|/nF	Phase(C)/deg	Re(M)	Im(M)	|M|	Phase(M)/deg	Re(Permittivity)	Im(Permittivity)	|Permittivity|	Phase(Permittivity)/deg	Re(Resistivity)/Ohm.cm	Im(Resistivity)/Ohm.cm	|Resistivity|/Ohm.cm	Phase(Resistivity)/deg	Re(Conductivity)/mS/cm	Im(Conductivity)/mS/cm	|Conductivity|/mS/cm	Phase(Conductivity)/deg	Tan(Delta)	Loss Angle(Delta)/deg	dq/mA.h	Pwe/W	Rwe/Ohm	
1.0000371E+005	6.7932601E+000	2.2236223E+000	7.1479282E+000	-1.8124706E+001	5.167088321576011E+001	2.9167929E-001	-4.0391009E-002	7.1571970E-001	6.9263533E-002	1.000000000000000E+000	10	9.0798726E-003	1.2702803E-003	0	-1.642567745137300E-005	1.3295905E-001	4.3521181E-002	1.3990068E-001	1.8124706E+001	6.9263557E+001	2.1160304E+002	2.2265059E+002	-7.1875290E+001	0.0000000E+000	0.0000000E+000	0.0000000E+000	7.1875290E+001	0.0000000E+000	0.0000000E+000	0.0000000E+000	-7.1875290E+001	0.0000000E+000	0.0000000E+000	0.0000000E+000	-1.8124706E+001	0.0000000E+000	0.0000000E+000	0.0000000E+000	1.8124706E+001	3.0550423E+000	7.1875290E+001	-1.642567745137300E-005	-1.1781221E-005	7.2213916E+003
6.8261953E+004	6.8723164E+000	3.3020306E+000	7.6244435E+000	-2.5663488E+001	5.210788120984216E+001	2.9167536E-001	-4.0281199E-002	7.0609045E-001	1.3243605E-001	1.000000000000000E+000	10	1.0500122E-002	1.3771657E-003	0	-2.320316129390590E-005	1.1821888E-001	5.6802150E-002	1.3115712E-001	2.5663488E+001	1.3243605E+002	2.7563113E+002	3.0579703E+002	-6.4336510E+001	0.0000000E+000	0.0000000E+000	0.0000000E+000	6.4336510E+001	0.0000000E+000	0.0000000E+000	0.0000000E+000	-6.4336510E+001	0.0000000E+000	0.0000000E+000	0.0000000E+000	-2.5663488E+001	0.0000000E+000	0.0000000E+000	0.0000000E+000	2.5663488E+001	2.0812395E+000	6.4336510E+001	-6.777483842532899E-006	-1.1749034E-005	7.2409800E+003
4.6596645E+004	7.0120668E+000	4.8134332E+000	8.5051880E+000	-3.4467651E+001	5.254489592395839E+001	2.9166889E-001	-4.1889299E-002	7.0959502E-001	2.2727549E-001	1.000000000000000E+000	10	1.0756860E-002	1.2647409E-003	0	-2.614128568524029E-005	9.6934460E-002	6.6540666E-002	1.1757530E-001	3.4467651E+001	2.2727550E+002	3.3108820E+002	4.0158878E+002	-5.5532349E+001	0.0000000E+000	0.0000000E+000	0.0000000E+000	5.5532349E+001	0.0000000E+000	0.0000000E+000	0.0000000E+000	-5.5532349E+001	0.0000000E+000	0.0000000E+000	0.0000000E+000	-3.4467651E+001	0.0000000E+000	0.0000000E+000	0.0000000E+000	3.4467651E+001	1.4567704E+000	5.5532349E+001	-2.938124391334392E-006	-1.2217805E-005	6.9628496E+003
3.1806711E+004	7.2292666E+000	6.9725885E+000	1.0043868E+001	-4.3964577E+001	5.298189013134106E+001	2.9167652E-001	-4.1416552E-002	7.1764117E-001	3.4585449E-001	1.000000000000000E+000	10	1.0944082E-002	1.0896282E-003	0	-3.134577398562882E-005	7.1662545E-002	6.9118142E-002	9.9563234E-002	4.3964577E+001	3.4585449E+002	3.5858621E+002	4.9819614E+002	-4.6035423E+001	0.0000000E+000	0.0000000E+000	0.0000000E+000	4.6035423E+001	0.0000000E+000	0.0000000E+000	0.0000000E+000	-4.6035423E+001	0.0000000E+000	0.0000000E+000	0.0000000E+000	-4.3964577E+001	0.0000000E+000	0.0000000E+000	0.0000000E+000	4.3964577E+001	1.0368124E+000	4.6035431E+001	-5.204488300388523E-006	-1.2080236E-005	7.0425107E+003
2.1711699E+004	7.6024756E+000	1.0047137E+001	1.2599310E+001	-5.2885910E+001	5.341889017881476E+001	2.9167208E-001	-4.0938225E-002	7.2959858E-001	4.6395424E-001	1.000000000000000E+000	10	1.0686856E-002	8.4820960E-004	0	-3.635634073242383E-005	4.7891837E-002	6.3292004E-002	7.9369426E-002	5.2885910E+001	4.6395422E+002	3.5106522E+002	5.8180780E+002	-3.7114090E+001	0.0000000E+000	0.0000000E+000	0.0000000E+000	3.7114090E+001	0.0000000E+000	0.0000000E+000	0.0000000E+000	-3.7114090E+001	0.0000000E+000	0.0000000E+000	0.0000000E+000	-5.2885910E+001	0.0000000E+000	0.0000000E+000	0.0000000E+000	5.2885910E+001	7.5668079E-001	3.7114090E+001	-5.010566746795017E-006	-1.1940537E-005	7.1246880E+003
1.4817771E+004	8.2357082E+000	1.4431687E+001	1.6616272E+001	-6.0287964E+001	5.385688502623816E+001	2.9168138E-001	-4.0229104E-002	7.4425226E-001	5.6141913E-001	1.000000000000000E+000	10	1.0169047E-002	6.1199331E-004	0	-4.058422181882714E-005	2.9828660E-002	5.2269693E-002	6.0181972E-002	6.0287964E+001	5.6141913E+002	3.2038412E+002	6.4640344E+002	-2.9712036E+001	0.0000000E+000	0.0000000E+000	0.0000000E+000	2.9712036E+001	0.0000000E+000	0.0000000E+000	0.0000000E+000	-2.9712036E+001	0.0000000E+000	0.0000000E+000	0.0000000E+000	-6.0287964E+001	0.0000000E+000	0.0000000E+000	0.0000000E+000	6.0287964E+001	5.7066840E-001	2.9712036E+001	-4.227881086403312E-006	-1.1734081E-005	7.2505063E+003
1.0113567E+004	9.3614368E+000	2.0660927E+001	2.2682821E+001	-6.5624786E+001	5.415288261367823E+001	2.9167533E-001	-4.1129943E-002	7.6166844E-001	6.3193357E-001	1.000000000000000E+000	10	9.5432447E-003	4.2072564E-004	0	-4.370413283308476E-005	1.8194845E-002	4.0156480E-002	4.4086225E-002	6.5624786E+001	6.3193353E+002	2.8632822E+002	6.9377509E+002	-2.4375214E+001	0.0000000E+000	0.0000000E+000	0.0000000E+000	2.4375214E+001	0.0000000E+000	0.0000000E+000	0.0000000E+000	-2.4375214E+001	0.0000000E+000	0.0000000E+000	0.0000000E+000	-6.5624786E+001	0.0000000E+000	0.0000000E+000	0.0000000E+000	6.5624786E+001	4.5309860E-001	2.4375214E+001	-3.119911014257618E-006	-1.1996590E-005	7.0915566E+003
6.9048516E+003	1.1303478E+001	2.9567087E+001	3.1654087E+001	-6.9078178E+001	5.452684561806382E+001	2.9167321E-001	-3.5678420E-002	7.7957380E-001	6.8016571E-001	1.000000000000000E+000	10	9.0105850E-003	2.8465787E-004	0	-4.746418656445328E-005	1.1281127E-002	2.9508624E-002	3.1591497E-002	6.9078178E+001	6.8016577E+002	2.6002692E+002	7.2817542E+002	-2.0921822E+001	0.0000000E+000	0.0000000E+000	0.0000000E+000	2.0921822E+001	0.0000000E+000	0.0000000E+000	0.0000000E+000	-2.0921822E+001	0.0000000E+000	0.0000000E+000	0.0000000E+000	-6.9078178E+001	0.0000000E+000	0.0000000E+000	0.0000000E+000	6.9078178E+001	3.8229936E-001	2.0921814E+001	-3.760053731368521E-006	-1.0406439E-005	8.1750596E+003
4.7165098E+003	1.4682947E+001	4.1957333E+001	4.4452297E+001	-7.0712532E+001	5.569811255376408E+001	2.9171073E-001	-5.0791889E-002	8.0425084E-001	7.1650440E-001	1.000000000000000E+000	11	1.0097986E-002	2.2716455E-004	0	-6.049469939066654E-005	7.4306163E-003	2.1233397E-002	2.2496026E-002	7.0712532E+001	7.1650433E+002	2.5074033E+002	7.5911078E+002	-1.9287468E+001	0.0000000E+000	0.0000000E+000	0.0000000E+000	1.9287468E+001	0.0000000E+000	0.0000000E+000	0.0000000E+000	-1.9287468E+001	0.0000000E+000	0.0000000E+000	0.0000000E+000	-7.0712532E+001	0.0000000E+000	0.0000000E+000	0.0000000E+000	7.0712532E+001	3.4994948E-001	1.9287476E+001	-1.303051282621325E-005	-1.4816539E-005	5.7432544E+003
3.2169119E+003	2.0910324E+001	5.9037201E+001	6.2630924E+001	-7.0496414E+001	5.616532473594998E+001	2.9170439E-001	-5.0708987E-002	8.3802158E-001	7.4461037E-001	1.000000000000000E+000	11	9.1034817E-003	1.4535122E-004	0	-6.686176591507360E-005	5.3306869E-003	1.5050402E-002	1.5966553E-002	7.0496414E+001	7.4461035E+002	2.6373282E+002	7.8993646E+002	-1.9503586E+001	0.0000000E+000	0.0000000E+000	0.0000000E+000	1.9503586E+001	0.0000000E+000	0.0000000E+000	0.0000000E+000	-1.9503586E+001	0.0000000E+000	0.0000000E+000	0.0000000E+000	-7.0496414E+001	0.0000000E+000	0.0000000E+000	0.0000000E+000	7.0496414E+001	3.5418895E-001	1.9503586E+001	-6.367066524407065E-006	-1.4792034E-005	5.7525186E+003
2.1957024E+003	3.2015865E+001	8.1810196E+001	8.7851715E+001	-6.8627449E+001	5.685708087548119E+001	2.9169106E-001	-5.0763391E-002	8.8601124E-001	7.6834029E-001	1.000000000000000E+000	11	9.8525211E-003	1.1214945E-004	0	-7.643752099137539E-005	4.1482481E-003	1.0600027E-002	1.1382817E-002	6.8627449E+001	7.6834027E+002	3.0068469E+002	8.2508063E+002	-2.1372551E+001	0.0000000E+000	0.0000000E+000	0.0000000E+000	2.1372551E+001	0.0000000E+000	0.0000000E+000	0.0000000E+000	-2.1372551E+001	0.0000000E+000	0.0000000E+000	0.0000000E+000	-6.8627449E+001	0.0000000E+000	0.0000000E+000	0.0000000E+000	6.8627449E+001	3.9134321E-001	2.1372559E+001	-9.575755076301793E-006	-1.4807228E-005	5.7460908E+003
1.5004799E+003	5.1535152E+001	1.1006470E+002	1.2153235E+002	-6.4909790E+001	5.732309660427563E+001	2.9169506E-001	-5.0828967E-002	9.6370006E-001	7.9041332E-001	1.000000000000000E+000	11	9.6349623E-003	7.9278994E-005	0	-8.292614415032869E-005	3.4891507E-003	7.4518537E-003	8.2282620E-003	6.4909790E+001	7.9041333E+002	3.7009198E+002	8.7276648E+002	-2.5090210E+001	0.0000000E+000	0.0000000E+000	0.0000000E+000	2.5090210E+001	0.0000000E+000	0.0000000E+000	0.0000000E+000	-2.5090210E+001	0.0000000E+000	0.0000000E+000	0.0000000E+000	-6.4909790E+001	0.0000000E+000	0.0000000E+000	0.0000000E+000	6.4909790E+001	4.6822596E-001	2.5090210E+001	-6.488623158953295E-006	-1.4826559E-005	5.7387563E+003
1.0240167E+003	8.4086937E+001	1.4160948E+002	1.6469322E+002	-5.9298389E+001	5.779034243978094E+001	2.9169708E-001	-5.0857663E-002	1.0975410E+000	8.1143540E-001	1.000000000000000E+000	11	9.5230844E-003	5.7823174E-005	0	-8.946557074982168E-005	3.1001100E-003	5.2208458E-003	6.0718954E-003	5.9298389E+001	8.1143542E+002	4.8182593E+002	9.4370740E+002	-3.0701611E+001	0.0000000E+000	0.0000000E+000	0.0000000E+000	3.0701611E+001	0.0000000E+000	0.0000000E+000	0.0000000E+000	-3.0701611E+001	0.0000000E+000	0.0000000E+000	0.0000000E+000	-5.9298389E+001	0.0000000E+000	0.0000000E+000	0.0000000E+000	5.9298389E+001	5.9379452E-001	3.0701614E+001	-6.539426599492994E-006	-1.4835032E-005	5.7355581E+003
6.9843555E+002	1.3228479E+002	1.6957375E+002	2.1506863E+002	-5.2042141E+001	5.825960984869744E+001	2.9169077E-001	-5.0905917E-002	1.3438016E+000	8.3540732E-001	1.000000000000000E+000	11	9.4769401E-003	4.4064724E-005	0	-9.595654034751836E-005	2.8599324E-003	3.6661013E-003	4.6496787E-003	5.2042141E+001	8.3540723E+002	6.5170276E+002	1.0595385E+003	-3.7957859E+001	0.0000000E+000	0.0000000E+000	0.0000000E+000	3.7957859E+001	0.0000000E+000	0.0000000E+000	0.0000000E+000	-3.7957859E+001	0.0000000E+000	0.0000000E+000	0.0000000E+000	-5.2042141E+001	0.0000000E+000	0.0000000E+000	0.0000000E+000	5.2042141E+001	7.8010184E-001	3.7957855E+001	-6.490969597696674E-006	-1.4848786E-005	5.7299976E+003
4.7698422E+002	1.9272943E+002	1.8415106E+002	2.6656378E+002	-4.3696087E+001	5.872630931090680E+001	2.9169416E-001	-5.0937403E-002	1.8119320E+000	8.6474502E-001	1.000000000000000E+000	11	9.4504850E-003	3.5452998E-005	0	-1.024064059986558E-004	2.7123503E-003	2.5916237E-003	3.7514474E-003	4.3696087E+001	8.6474500E+002	9.0502771E+002	1.2517424E+003	-4.6303913E+001	0.0000000E+000	0.0000000E+000	0.0000000E+000	4.6303913E+001	0.0000000E+000	0.0000000E+000	0.0000000E+000	-4.6303913E+001	0.0000000E+000	0.0000000E+000	0.0000000E+000	-4.3696087E+001	0.0000000E+000	0.0000000E+000	0.0000000E+000	4.3696087E+001	1.0465833E+000	4.6303909E+001	-6.449865651137474E-006	-1.4858143E-005	5.7265220E+003
3.2552084E+002	2.5642252E+002	1.8064426E+002	3.1366360E+002	-3.5163887E+001	5.944780819848529E+001	2.9172125E-001	-5.1705342E-002	2.7065570E+000	8.9771241E-001	1.000000000000000E+000	12	9.5300656E-003	3.0383078E-005	0	-1.120880565290178E-004	2.6063209E-003	1.8360981E-003	3.1881288E-003	3.5163887E+001	8.9771234E+002	1.2742927E+003	1.5587526E+003	-5.4836113E+001	0.0000000E+000	0.0000000E+000	0.0000000E+000	5.4836113E+001	0.0000000E+000	0.0000000E+000	0.0000000E+000	-5.4836113E+001	0.0000000E+000	0.0000000E+000	0.0000000E+000	-3.5163887E+001	0.0000000E+000	0.0000000E+000	0.0000000E+000	3.5163887E+001	1.4194889E+000	5.4836113E+001	-9.681650530361964E-006	-1.5083548E-005	5.6419946E+003
2.2234798E+002	3.1075937E+002	1.6290245E+002	3.5086835E+002	-2.7663874E+001	5.991103131386990E+001	2.9171562E-001	-5.1761031E-002	4.3939924E+000	9.4716614E-001	1.000000000000000E+000	12	9.4856480E-003	2.7034777E-005	0	-1.186319262990283E-004	2.5242702E-003	1.3232419E-003	2.8500718E-003	2.7663874E+001	9.4716614E+002	1.8068530E+003	2.0400592E+003	-6.2336128E+001	0.0000000E+000	0.0000000E+000	0.0000000E+000	6.2336128E+001	0.0000000E+000	0.0000000E+000	0.0000000E+000	-6.2336128E+001	0.0000000E+000	0.0000000E+000	0.0000000E+000	-2.7663874E+001	0.0000000E+000	0.0000000E+000	0.0000000E+000	2.7663874E+001	1.9076408E+000	6.2336128E+001	-6.543869770010539E-006	-1.5099501E-005	5.6358154E+003
1.5179730E+002	3.5122742E+002	1.3773604E+002	3.7726901E+002	-2.1412941E+001	6.037478866919992E+001	2.9170853E-001	-5.1752497E-002	7.6121702E+000	1.0146153E+000	1.000000000000000E+000	12	9.4592450E-003	2.5072944E-005	0	-1.251505919740765E-004	2.4676647E-003	9.6771022E-004	2.6506286E-003	2.1412941E+001	1.0146152E+003	2.5872725E+003	2.7791047E+003	-6.8587059E+001	0.0000000E+000	0.0000000E+000	0.0000000E+000	6.8587059E+001	0.0000000E+000	0.0000000E+000	0.0000000E+000	-6.8587059E+001	0.0000000E+000	0.0000000E+000	0.0000000E+000	-2.1412941E+001	0.0000000E+000	0.0000000E+000	0.0000000E+000	2.1412941E+001	2.5500038E+000	6.8587059E+001	-6.518665675048200E-006	-1.5096644E-005	5.6366079E+003
1.0357484E+002	3.8014798E+002	1.1414048E+002	3.9691376E+002	-1.6712530E+001	6.084892877170932E+001	2.9171565E-001	-5.1682774E-002	1.3462513E+001	1.1133026E+000	1.000000000000000E+000	12	9.4484016E-003	2.3804672E-005	0	-1.318514102848266E-004	2.4130170E-003	7.2451500E-004	2.5194390E-003	1.6712530E+001	1.1133029E+003	3.7078848E+003	3.8714148E+003	-7.3287468E+001	0.0000000E+000	0.0000000E+000	0.0000000E+000	7.3287468E+001	0.0000000E+000	0.0000000E+000	0.0000000E+000	-7.3287468E+001	0.0000000E+000	0.0000000E+000	0.0000000E+000	-1.6712530E+001	0.0000000E+000	0.0000000E+000	0.0000000E+000	1.6712530E+001	3.3305273E+000	7.3287468E+001	-6.700818310750027E-006	-1.5076674E-005	5.6443496E+003
7.0747063E+001	3.9933994E+002	9.5698563E+001	4.1064658E+002	-1.3476329E+001	6.131202279374702E+001	2.9170939E-001	-5.1643562E-002	2.3507492E+001	1.2766761E+000	1.000000000000000E+000	12	9.4437608E-003	2.2997296E-005	0	-1.384016723098693E-004	2.3681344E-003	5.6750409E-004	2.4351841E-003	1.3476329E+001	1.2766758E+003	5.3274341E+003	5.4782710E+003	-7.6523674E+001	0.0000000E+000	0.0000000E+000	0.0000000E+000	7.6523674E+001	0.0000000E+000	0.0000000E+000	0.0000000E+000	-7.6523674E+001	0.0000000E+000	0.0000000E+000	0.0000000E+000	-1.3476329E+001	0.0000000E+000	0.0000000E+000	0.0000000E+000	1.3476329E+001	4.1728940E+000	7.6523674E+001	-6.550262025042692E-006	-1.5064912E-005	5.6485142E+003
4.8284920E+001	4.1478674E+002	8.2806679E+001	4.2297162E+002	-1.1289919E+001	6.179325724326191E+001	2.9171255E-001	-5.1623508E-002	3.9805519E+001	1.5256382E+000	1.000000000000000E+000	12	9.4476957E-003	2.2336477E-005	0	-1.451839012714974E-004	2.3184749E-003	4.6285280E-004	2.3642248E-003	1.1289919E+001	1.5256379E+003	7.6420708E+003	7.7928696E+003	-7.8710083E+001	0.0000000E+000	0.0000000E+000	0.0000000E+000	7.8710083E+001	0.0000000E+000	0.0000000E+000	0.0000000E+000	-7.8710083E+001	0.0000000E+000	0.0000000E+000	0.0000000E+000	-1.1289919E+001	0.0000000E+000	0.0000000E+000	0.0000000E+000	1.1289919E+001	5.0090976E+000	7.8710083E+001	-6.782228961628185E-006	-1.5059225E-005	5.6507695E+003
3.2944279E+001	4.2758716E+002	7.6411079E+001	4.3436093E+002	-1.0131973E+001	6.228663918664097E+001	2.9171538E-001	-5.1602989E-002	6.3224262E+001	1.9565680E+000	1.000000000000000E+000	12	9.4383731E-003	2.1729333E-005	0	-1.521479766881392E-004	2.2663299E-003	4.0499980E-004	2.3022329E-003	1.0131973E+001	1.9565680E+003	1.0948718E+004	1.1122166E+004	-7.9868027E+001	0.0000000E+000	0.0000000E+000	0.0000000E+000	7.9868027E+001	0.0000000E+000	0.0000000E+000	0.0000000E+000	-7.9868027E+001	0.0000000E+000	0.0000000E+000	0.0000000E+000	-1.0131973E+001	0.0000000E+000	0.0000000E+000	0.0000000E+000	1.0131973E+001	5.5958791E+000	7.9868027E+001	-6.964075416641800E-006	-1.5053386E-005	5.6530713E+003
2.2482016E+001	4.3970837E+002	7.3441238E+001	4.4579935E+002	-9.4821634E+000	6.270707264666999E+001	2.9170886E-001	-5.1669858E-002	9.6392868E+001	2.6160500E+000	1.000000000000000E+000	12	9.4409902E-003	2.1177668E-005	0	-1.580382111032862E-004	2.2125132E-003	3.6953972E-004	2.2431617E-003	9.4821634E+000	2.6160493E+003	1.5662849E+004	1.5879815E+004	-8.0517838E+001	0.0000000E+000	0.0000000E+000	0.0000000E+000	8.0517838E+001	0.0000000E+000	0.0000000E+000	0.0000000E+000	-8.0517838E+001	0.0000000E+000	0.0000000E+000	0.0000000E+000	-9.4821634E+000	0.0000000E+000	0.0000000E+000	0.0000000E+000	9.4821634E+000	5.9872136E+000	8.0517838E+001	-5.890234415146975E-006	-1.5072555E-005	5.6456289E+003
1.5358784E+001	4.5203339E+002	7.6591812E+001	4.5847626E+002	-9.6167688E+000	6.316549541507266E+001	2.9170623E-001	-5.1543016E-002	1.3529475E+002	3.7758260E+000	1.000000000000000E+000	12	9.4419755E-003	2.0594252E-005	0	-1.644782048409717E-004	2.1504869E-003	3.6437507E-004	2.1811381E-003	9.6167688E+000	3.7758254E+003	2.2284357E+004	2.2601979E+004	-8.0383232E+001	0.0000000E+000	0.0000000E+000	0.0000000E+000	8.0383232E+001	0.0000000E+000	0.0000000E+000	0.0000000E+000	-8.0383232E+001	0.0000000E+000	0.0000000E+000	0.0000000E+000	-9.6167688E+000	0.0000000E+000	0.0000000E+000	0.0000000E+000	9.6167688E+000	5.9018502E+000	8.0383232E+001	-6.439993737685439E-006	-1.5035419E-005	5.6594717E+003
1.0486581E+001	4.6671469E+002	8.2999001E+001	4.7403738E+002	-1.0083870E+001	6.361487652975484E+001	2.9171053E-001	-5.1566519E-002	1.8285776E+002	5.6057525E+000	1.000000000000000E+000	12	9.4398381E-003	1.9913699E-005	0	-1.707636200243400E-004	2.0769513E-003	3.6935814E-004	2.1095383E-003	1.0083870E+001	5.6057520E+003	3.1521910E+004	3.2016484E+004	-7.9916130E+001	0.0000000E+000	0.0000000E+000	0.0000000E+000	7.9916130E+001	0.0000000E+000	0.0000000E+000	0.0000000E+000	-7.9916130E+001	0.0000000E+000	0.0000000E+000	0.0000000E+000	-1.0083870E+001	0.0000000E+000	0.0000000E+000	0.0000000E+000	1.0083870E+001	5.6231360E+000	7.9916130E+001	-6.285415183368369E-006	-1.5042497E-005	5.6569756E+003
7.1543007E+000	4.8383307E+002	9.3582344E+001	4.9280026E+002	-1.0946898E+001	6.396089979950921E+001	2.9171729E-001	-5.1490292E-002	2.3771632E+002	8.5724506E+000	1.000000000000000E+000	12	9.4380397E-003	1.9151856E-005	0	-1.758489411516441E-004	1.9922953E-003	3.8534706E-004	2.0292196E-003	1.0946898E+001	8.5724521E+003	4.4320699E+004	4.5142125E+004	-7.9053101E+001	0.0000000E+000	0.0000000E+000	0.0000000E+000	7.9053101E+001	0.0000000E+000	0.0000000E+000	0.0000000E+000	-7.9053101E+001	0.0000000E+000	0.0000000E+000	0.0000000E+000	-1.0946898E+001	0.0000000E+000	0.0000000E+000	0.0000000E+000	1.0946898E+001	5.1701322E+000	7.9053101E+001	-5.085321127304079E-006	-1.5020609E-005	5.6654814E+003
4.8828125E+000	5.0466296E+002	1.0745421E+002	5.1597589E+002	-1.2020071E+001	6.444193096904201E+001	2.9171026E-001	-5.1606659E-002	3.0333789E+002	1.3155723E+001	1.000000000000000E+000	12	9.4434805E-003	1.8302175E-005	0	-1.824290516989531E-004	1.8955822E-003	4.0361253E-004	1.9380751E-003	1.2020071E+001	1.3155724E+004	6.1786371E+004	6.3171422E+004	-7.7979927E+001	0.0000000E+000	0.0000000E+000	0.0000000E+000	7.7979927E+001	0.0000000E+000	0.0000000E+000	0.0000000E+000	-7.7979927E+001	0.0000000E+000	0.0000000E+000	0.0000000E+000	-1.2020071E+001	0.0000000E+000	0.0000000E+000	0.0000000E+000	1.2020071E+001	4.6965399E+000	7.7979927E+001	-6.580110547309027E-006	-1.5054192E-005	5.6525703E+003
3.3329778E+000	5.2640002E+002	1.2365663E+002	5.4072906E+002	-1.3219666E+001	6.511724329447316E+001	2.9171878E-001	-5.1450204E-002	3.8616269E+002	2.0195086E+001	1.000000000000000E+000	12	9.4399266E-003	1.7457776E-005	0	-1.917619588861615E-004	1.8003479E-003	4.2291975E-004	1.8493549E-003	1.3219666E+001	2.0195086E+004	8.5969453E+004	8.8309617E+004	-7.6780334E+001	0.0000000E+000	0.0000000E+000	0.0000000E+000	7.6780334E+001	0.0000000E+000	0.0000000E+000	0.0000000E+000	-7.6780334E+001	0.0000000E+000	0.0000000E+000	0.0000000E+000	-1.3219666E+001	0.0000000E+000	0.0000000E+000	0.0000000E+000	1.3219666E+001	4.2569494E+000	7.6780334E+001	-9.332907187208328E-006	-1.5008991E-005	5.6699248E+003
