freq/Hz	Re(Z)/Ohm	-Im(Z)/Ohm	|Z|/Ohm	Phase(Z)/deg	time/s	<Ewe>/V	<I>/mA	Cs/µF	Cp/µF	cycle number	I Range	|Ewe|/V	|I|/A	Ns	(Q-Qo)/mA.h	Re(Y)/Ohm-1	Im(Y)/Ohm-1	|Y|/Ohm-1	Phase(Y)/deg	Re(C)/nF	Im(C)/nF	|C|/nF	Phase(C)/deg	Re(M)	Im(M)	|M|	Phase(M)/deg	Re(Permittivity)	Im(Permittivity)	|Permittivity|	Phase(Permittivity)/deg	Re(Resistivity)/Ohm.cm	Im(Resistivity)/Ohm.cm	|Resistivity|/Ohm.cm	Phase(Resistivity)/deg	Re(Conductivity)/mS/cm	Im(Conductivity)/mS/cm	|Conductivity|/mS/cm	Phase(Conductivity)/deg	Tan(Delta)	Loss Angle(Delta)/deg	dq/mA.h	Pwe/W	Rwe/Ohm	
1.0000371E+005	6.7246604E+000	2.2856376E+000	7.1024780E+000	-1.8772329E+001	5.166889340235502E+001	2.9166022E-001	-6.1562434E-002	6.9630033E-001	7.2109349E-002	1.000000000000000E+000	10	9.0270601E-003	1.2709734E-003	0	-2.409780962381693E-005	1.3330626E-001	4.5309324E-002	1.4079593E-001	1.8772329E+001	7.2109367E+001	2.1215564E+002	2.2407538E+002	-7.1227669E+001	0.0000000E+000	0.0000000E+000	0.0000000E+000	7.1227669E+001	0.0000000E+000	0.0000000E+000	0.0000000E+000	-7.1227669E+001	0.0000000E+000	0.0000000E+000	0.0000000E+000	-1.8772329E+001	0.0000000E+000	0.0000000E+000	0.0000000E+000	1.8772329E+001	2.9421377E+000	7.1227669E+001	-2.409780962381693E-005	-1.7955314E-005	4.7376328E+003
6.8261953E+004	6.8156223E+000	3.4041557E+000	7.6184635E+000	-2.6540462E+001	5.210689155649743E+001	2.9165387E-001	-6.1491709E-002	6.8490762E-001	1.3674645E-001	1.000000000000000E+000	10	1.0517961E-002	1.3805883E-003	0	-2.953006771294814E-005	1.1742775E-001	5.8650896E-002	1.3126007E-001	2.6540462E+001	1.3674646E+002	2.7378659E+002	3.0603708E+002	-6.3459538E+001	0.0000000E+000	0.0000000E+000	0.0000000E+000	6.3459538E+001	0.0000000E+000	0.0000000E+000	0.0000000E+000	-6.3459538E+001	0.0000000E+000	0.0000000E+000	0.0000000E+000	-2.6540462E+001	0.0000000E+000	0.0000000E+000	0.0000000E+000	2.6540462E+001	2.0021477E+000	6.3459534E+001	-5.432258089131211E-006	-1.7934295E-005	4.7429790E+003
4.6596645E+004	6.9502854E+000	4.9665670E+000	8.5424385E+000	-3.5549019E+001	5.254389275054564E+001	2.9164088E-001	-6.2332984E-002	6.8771613E-001	2.3246527E-001	1.000000000000000E+000	10	1.0785249E-002	1.2625492E-003	0	-3.506866695532679E-005	9.5244281E-002	6.8060100E-002	1.1706259E-001	3.5549019E+001	2.3246527E+002	3.2531522E+002	3.9983759E+002	-5.4450981E+001	0.0000000E+000	0.0000000E+000	0.0000000E+000	5.4450981E+001	0.0000000E+000	0.0000000E+000	0.0000000E+000	-5.4450981E+001	0.0000000E+000	0.0000000E+000	0.0000000E+000	-3.5549019E+001	0.0000000E+000	0.0000000E+000	0.0000000E+000	3.5549019E+001	1.3994144E+000	5.4450981E+001	-5.538599242378646E-006	-1.8178845E-005	4.6787568E+003
3.1806711E+004	7.1640749E+000	7.1992030E+000	1.0156402E+001	-4.5140125E+001	5.298188781135832E+001	2.9165286E-001	-6.2158033E-002	6.9505143E-001	3.4922561E-001	1.000000000000000E+000	10	1.0895893E-002	1.0728104E-003	0	-4.294463987636846E-005	6.9451302E-002	6.9791846E-002	9.8460071E-002	4.5140125E+001	3.4922559E+002	3.4752158E+002	4.9267612E+002	-4.4859875E+001	0.0000000E+000	0.0000000E+000	0.0000000E+000	4.4859875E+001	0.0000000E+000	0.0000000E+000	0.0000000E+000	-4.4859875E+001	0.0000000E+000	0.0000000E+000	0.0000000E+000	-4.5140125E+001	0.0000000E+000	0.0000000E+000	0.0000000E+000	4.5140125E+001	9.9512053E-001	4.4859879E+001	-7.875972921041672E-006	-1.8128569E-005	4.6921187E+003
2.1711699E+004	7.5316057E+000	1.0399931E+001	1.2840703E+001	-5.4088032E+001	5.341989375217236E+001	2.9165033E-001	-6.1502885E-002	7.0484865E-001	4.6235886E-001	1.000000000000000E+000	10	1.0729931E-002	8.3561870E-004	0	-4.824566865177217E-005	4.5678306E-002	6.3074365E-002	7.7877358E-002	5.4088032E+001	4.6235883E+002	3.3483917E+002	5.7087036E+002	-3.5911968E+001	0.0000000E+000	0.0000000E+000	0.0000000E+000	3.5911968E+001	0.0000000E+000	0.0000000E+000	0.0000000E+000	-3.5911968E+001	0.0000000E+000	0.0000000E+000	0.0000000E+000	-5.4088032E+001	0.0000000E+000	0.0000000E+000	0.0000000E+000	5.4088032E+001	7.2419769E-001	3.5911972E+001	-5.301028775403713E-006	-1.7937336E-005	4.7420591E+003
1.4817771E+004	8.1759768E+000	1.4975963E+001	1.7062416E+001	-6.1368111E+001	5.385688414625474E+001	2.9165307E-001	-6.1167877E-002	7.1720368E-001	5.5252379E-001	1.000000000000000E+000	10	1.0197613E-002	5.9766526E-004	0	-5.483702495782119E-005	2.8083973E-002	5.1441506E-002	5.8608346E-002	6.1368111E+001	5.5252374E+002	3.0164481E+002	6.2950146E+002	-2.8631889E+001	0.0000000E+000	0.0000000E+000	0.0000000E+000	2.8631889E+001	0.0000000E+000	0.0000000E+000	0.0000000E+000	-2.8631889E+001	0.0000000E+000	0.0000000E+000	0.0000000E+000	-6.1368111E+001	0.0000000E+000	0.0000000E+000	0.0000000E+000	6.1368111E+001	5.4593998E-001	2.8631897E+001	-6.591356306049015E-006	-1.7839799E-005	4.7680757E+003
1.0113567E+004	9.3401270E+000	2.1497065E+001	2.3438467E+001	-6.6515831E+001	5.415287706701201E+001	2.9166058E-001	-6.1904926E-002	7.3204297E-001	6.1579549E-001	1.000000000000000E+000	10	9.5256614E-003	4.0641145E-004	0	-5.970754625723283E-005	1.7001782E-002	3.9130982E-002	4.2664908E-002	6.6515831E+001	6.1579547E+002	2.6755322E+002	6.7140808E+002	-2.3484169E+001	0.0000000E+000	0.0000000E+000	0.0000000E+000	2.3484169E+001	0.0000000E+000	0.0000000E+000	0.0000000E+000	-2.3484169E+001	0.0000000E+000	0.0000000E+000	0.0000000E+000	-6.6515831E+001	0.0000000E+000	0.0000000E+000	0.0000000E+000	6.6515831E+001	4.3448383E-001	2.3484161E+001	-4.870521299411643E-006	-1.8055227E-005	4.7114277E+003
6.9048516E+003	1.1283308E+001	3.0728777E+001	3.2734856E+001	-6.9837257E+001	5.470185015970492E+001	2.9165393E-001	-5.6060683E-002	7.5010234E-001	6.6098285E-001	1.000000000000000E+000	10	9.7979251E-003	2.9931168E-004	0	-6.844744039665076E-005	1.0529689E-002	2.8676387E-002	3.0548478E-002	6.9837257E+001	6.6098285E+002	2.4270645E+002	7.0413403E+002	-2.0162743E+001	0.0000000E+000	0.0000000E+000	0.0000000E+000	2.0162743E+001	0.0000000E+000	0.0000000E+000	0.0000000E+000	-2.0162743E+001	0.0000000E+000	0.0000000E+000	0.0000000E+000	-6.9837257E+001	0.0000000E+000	0.0000000E+000	0.0000000E+000	6.9837257E+001	3.6719027E-001	2.0162750E+001	-8.739894139417935E-006	-1.6350319E-005	5.2024683E+003
4.7165098E+003	1.4896703E+001	4.3654583E+001	4.6126286E+001	-7.1158287E+001	5.565007281814906E+001	2.9167622E-001	-7.2201498E-002	7.7298230E-001	6.9236046E-001	1.000000000000000E+000	11	1.0177653E-002	2.2064758E-004	0	-8.547976728659705E-005	7.0015346E-003	2.0517897E-002	2.1679612E-002	7.1158287E+001	6.9236041E+002	2.3626132E+002	7.3156158E+002	-1.8841713E+001	0.0000000E+000	0.0000000E+000	0.0000000E+000	1.8841713E+001	0.0000000E+000	0.0000000E+000	0.0000000E+000	-1.8841713E+001	0.0000000E+000	0.0000000E+000	0.0000000E+000	-7.1158287E+001	0.0000000E+000	0.0000000E+000	0.0000000E+000	7.1158287E+001	3.4124029E-001	1.8841705E+001	-1.703232688994629E-005	-2.1059461E-005	4.0397532E+003
3.2169119E+003	2.1495005E+001	6.1482800E+001	6.5131943E+001	-7.0729858E+001	5.611736254699645E+001	2.9167253E-001	-7.2125860E-002	8.0468762E-001	7.1704519E-001	1.000000000000000E+000	11	9.2092082E-003	1.4139312E-004	0	-9.475325897539410E-005	5.0669839E-003	1.4493243E-002	1.5353450E-002	7.0729858E+001	7.1704523E+002	2.5068623E+002	7.5960345E+002	-1.9270142E+001	0.0000000E+000	0.0000000E+000	0.0000000E+000	1.9270142E+001	0.0000000E+000	0.0000000E+000	0.0000000E+000	-1.9270142E+001	0.0000000E+000	0.0000000E+000	0.0000000E+000	-7.0729858E+001	0.0000000E+000	0.0000000E+000	0.0000000E+000	7.0729858E+001	3.4961006E-001	1.9270142E+001	-9.273491688797049E-006	-2.1037133E-005	4.0439382E+003
2.1957024E+003	3.3489990E+001	8.5114174E+001	9.1465851E+001	-6.8521782E+001	5.680911047320114E+001	2.9167548E-001	-7.2109655E-002	8.5161787E-001	7.3744661E-001	1.000000000000000E+000	11	9.8412009E-003	1.0759426E-004	0	-1.083762088305601E-004	4.0031062E-003	1.0173817E-002	1.0933043E-002	6.8521782E+001	7.3744659E+002	2.9016412E+002	7.9247882E+002	-2.1478218E+001	0.0000000E+000	0.0000000E+000	0.0000000E+000	2.1478218E+001	0.0000000E+000	0.0000000E+000	0.0000000E+000	-2.1478218E+001	0.0000000E+000	0.0000000E+000	0.0000000E+000	-6.8521782E+001	0.0000000E+000	0.0000000E+000	0.0000000E+000	6.8521782E+001	3.9347136E-001	2.1478210E+001	-1.362294985516604E-005	-2.1032618E-005	4.0448879E+003
1.5004799E+003	5.4408936E+001	1.1420944E+002	1.2650742E+002	-6.4527054E+001	5.727607804204308E+001	2.9167497E-001	-7.2157346E-002	9.2872673E-001	7.5693738E-001	1.000000000000000E+000	11	9.6160965E-003	7.6012111E-005	0	-1.175424572342708E-004	3.3996811E-003	7.1362494E-003	7.9046749E-003	6.4527054E+001	7.5693744E+002	3.6060202E+002	8.3844385E+002	-2.5472946E+001	0.0000000E+000	0.0000000E+000	0.0000000E+000	2.5472946E+001	0.0000000E+000	0.0000000E+000	0.0000000E+000	-2.5472946E+001	0.0000000E+000	0.0000000E+000	0.0000000E+000	-6.4527054E+001	0.0000000E+000	0.0000000E+000	0.0000000E+000	6.4527054E+001	4.7639611E-001	2.5472946E+001	-9.166248403710700E-006	-2.1046491E-005	4.0422075E+003
1.0240167E+003	8.9193474E+001	1.4557971E+002	1.7073058E+002	-5.8505119E+001	5.774332379756379E+001	2.9167873E-001	-7.2113007E-002	1.0676090E+000	7.7623159E-001	1.000000000000000E+000	11	9.5221894E-003	5.5773195E-005	0	-1.267917682808370E-004	3.0599227E-003	4.9943416E-003	5.8571817E-003	5.8505119E+001	7.7623163E+002	4.7557996E+002	9.1033612E+002	-3.1494881E+001	0.0000000E+000	0.0000000E+000	0.0000000E+000	3.1494881E+001	0.0000000E+000	0.0000000E+000	0.0000000E+000	-3.1494881E+001	0.0000000E+000	0.0000000E+000	0.0000000E+000	-5.8505119E+001	0.0000000E+000	0.0000000E+000	0.0000000E+000	5.8505119E+001	6.1267793E-001	3.1494873E+001	-9.249311046566127E-006	-2.1033829E-005	4.0447451E+003
6.9843555E+002	1.3963513E+002	1.7217801E+002	2.2168274E+002	-5.0958199E+001	5.821257819313905E+001	2.9167503E-001	-7.2127536E-002	1.3234762E+000	7.9837644E-001	1.000000000000000E+000	11	9.4779888E-003	4.2754746E-005	0	-1.359890259985413E-004	2.8413904E-003	3.5035955E-003	4.5109512E-003	5.0958199E+001	7.9837646E+002	6.4747754E+002	1.0279261E+003	-3.9041801E+001	0.0000000E+000	0.0000000E+000	0.0000000E+000	3.9041801E+001	0.0000000E+000	0.0000000E+000	0.0000000E+000	-3.9041801E+001	0.0000000E+000	0.0000000E+000	0.0000000E+000	-5.0958199E+001	0.0000000E+000	0.0000000E+000	0.0000000E+000	5.0958199E+001	8.1099284E-001	3.9041809E+001	-9.197257717704287E-006	-2.1037802E-005	4.0438792E+003
4.7698422E+002	2.0170148E+002	1.8396072E+002	2.7299274E+002	-4.2366207E+001	5.867932917535654E+001	2.9167208E-001	-7.2254039E-002	1.8138068E+000	8.2364309E-001	1.000000000000000E+000	11	9.4500715E-003	3.4616569E-005	0	-1.451532151893941E-004	2.7064930E-003	2.4684421E-003	3.6631012E-003	4.2366207E+001	8.2364307E+002	9.0307336E+002	1.2222640E+003	-4.7633793E+001	0.0000000E+000	0.0000000E+000	0.0000000E+000	4.7633793E+001	0.0000000E+000	0.0000000E+000	0.0000000E+000	-4.7633793E+001	0.0000000E+000	0.0000000E+000	0.0000000E+000	-4.2366207E+001	0.0000000E+000	0.0000000E+000	0.0000000E+000	4.2366207E+001	1.0964377E+000	4.7633789E+001	-9.164189190852799E-006	-2.1074486E-005	4.0367581E+003
3.2552084E+002	2.6441760E+002	1.7671425E+002	3.1803238E+002	-3.3755398E+001	5.940084926292184E+001	2.9170054E-001	-7.2978124E-002	2.7667489E+000	8.5422099E-001	1.000000000000000E+000	12	9.5283305E-003	2.9960253E-005	0	-1.588585116453938E-004	2.6142534E-003	1.7471446E-003	3.1443338E-003	3.3755398E+001	8.5422089E+002	1.2781711E+003	1.5373402E+003	-5.6244602E+001	0.0000000E+000	0.0000000E+000	0.0000000E+000	5.6244602E+001	0.0000000E+000	0.0000000E+000	0.0000000E+000	-5.6244602E+001	0.0000000E+000	0.0000000E+000	0.0000000E+000	-3.3755398E+001	0.0000000E+000	0.0000000E+000	0.0000000E+000	3.3755398E+001	1.4963005E+000	5.6244598E+001	-1.370529645599973E-005	-2.1287758E-005	3.9970957E+003
2.2234798E+002	3.1611444E+002	1.5643639E+002	3.5270480E+002	-2.6329548E+001	5.986402168497079E+001	2.9170027E-001	-7.2892949E-002	4.5756116E+000	9.0012324E-001	1.000000000000000E+000	12	9.4818287E-003	2.6883185E-005	0	-1.680882251937162E-004	2.5410990E-003	1.2575203E-003	2.8352321E-003	2.6329548E+001	9.0012317E+002	1.8188987E+003	2.0294369E+003	-6.3670452E+001	0.0000000E+000	0.0000000E+000	0.0000000E+000	6.3670452E+001	0.0000000E+000	0.0000000E+000	0.0000000E+000	-6.3670452E+001	0.0000000E+000	0.0000000E+000	0.0000000E+000	-2.6329548E+001	0.0000000E+000	0.0000000E+000	0.0000000E+000	2.6329548E+001	2.0207219E+000	6.3670456E+001	-9.229713548322455E-006	-2.1262893E-005	4.0017625E+003
1.5179730E+002	3.5313937E+002	1.3097791E+002	3.7664655E+002	-2.0349606E+001	6.032577986686374E+001	2.9169646E-001	-7.2841562E-002	8.0049391E+000	9.6802408E-001	1.000000000000000E+000	12	9.4585763E-003	2.5112606E-005	0	-1.772958802679500E-004	2.4893051E-003	9.2327280E-004	2.6550090E-003	2.0349606E+001	9.6802417E+002	2.6099622E+003	2.7836978E+003	-6.9650391E+001	0.0000000E+000	0.0000000E+000	0.0000000E+000	6.9650391E+001	0.0000000E+000	0.0000000E+000	0.0000000E+000	-6.9650391E+001	0.0000000E+000	0.0000000E+000	0.0000000E+000	-2.0349606E+001	0.0000000E+000	0.0000000E+000	0.0000000E+000	2.0349606E+001	2.6961751E+000	6.9650391E+001	-9.207655074233717E-006	-2.1247626E-005	4.0045332E+003
1.0357484E+002	3.7905011E+002	1.0792085E+002	3.9411407E+002	-1.5892390E+001	6.079889951596851E+001	2.9168954E-001	-7.2937243E-002	1.4238377E+001	1.0676460E+000	1.000000000000000E+000	12	9.4493274E-003	2.3976123E-005	0	-1.866821698010604E-004	2.4403536E-003	6.9480261E-004	2.5373364E-003	1.5892390E+001	1.0676458E+003	3.7498904E+003	3.8989160E+003	-7.4107613E+001	0.0000000E+000	0.0000000E+000	0.0000000E+000	7.4107613E+001	0.0000000E+000	0.0000000E+000	0.0000000E+000	-7.4107613E+001	0.0000000E+000	0.0000000E+000	0.0000000E+000	-1.5892390E+001	0.0000000E+000	0.0000000E+000	0.0000000E+000	1.5892390E+001	3.5122974E+000	7.4107613E+001	-9.386289533110440E-006	-2.1275031E-005	3.9991853E+003
7.0747063E+001	3.9753470E+002	9.0000114E+001	4.0759521E+002	-1.2756471E+001	6.126204319137105E+001	2.9169893E-001	-7.2910689E-002	2.4995892E+001	1.2186995E+000	1.000000000000000E+000	12	9.4402861E-003	2.3160934E-005	0	-1.958990453858080E-004	2.3928578E-003	5.4173253E-004	2.4534145E-003	1.2756471E+001	1.2186993E+003	5.3830522E+003	5.5192827E+003	-7.7243530E+001	0.0000000E+000	0.0000000E+000	0.0000000E+000	7.7243530E+001	0.0000000E+000	0.0000000E+000	0.0000000E+000	-7.7243530E+001	0.0000000E+000	0.0000000E+000	0.0000000E+000	-1.2756471E+001	0.0000000E+000	0.0000000E+000	0.0000000E+000	1.2756471E+001	4.4170465E+000	7.7243530E+001	-9.216875584747570E-006	-2.1267970E-005	4.0007705E+003
4.8284920E+001	4.1057938E+002	7.8471031E+001	4.1801093E+002	-1.0820038E+001	6.174325518755359E+001	2.9170114E-001	-7.2893061E-002	4.2004833E+001	1.4802761E+000	1.000000000000000E+000	12	9.4376979E-003	2.2577635E-005	0	-2.055026000332812E-004	2.3497513E-003	4.4909076E-004	2.3922820E-003	1.0820038E+001	1.4802760E+003	7.7451616E+003	7.8853501E+003	-7.9179962E+001	0.0000000E+000	0.0000000E+000	0.0000000E+000	7.9179962E+001	0.0000000E+000	0.0000000E+000	0.0000000E+000	-7.9179962E+001	0.0000000E+000	0.0000000E+000	0.0000000E+000	-1.0820038E+001	0.0000000E+000	0.0000000E+000	0.0000000E+000	1.0820038E+001	5.2322412E+000	7.9179962E+001	-9.603554647473277E-006	-2.1262989E-005	4.0017683E+003
3.2944279E+001	4.2289679E+002	7.2061859E+001	4.2899255E+002	-9.6703510E+000	6.223662870426779E+001	2.9169789E-001	-7.2868980E-002	6.7040100E+001	1.8916731E+000	1.000000000000000E+000	12	9.4424170E-003	2.2010678E-005	0	-2.153129324557138E-004	2.2979199E-003	3.9156692E-004	2.3310429E-003	9.6703510E+000	1.8916726E+003	1.1101329E+004	1.1261347E+004	-8.0329651E+001	0.0000000E+000	0.0000000E+000	0.0000000E+000	8.0329651E+001	0.0000000E+000	0.0000000E+000	0.0000000E+000	-8.0329651E+001	0.0000000E+000	0.0000000E+000	0.0000000E+000	-9.6703510E+000	0.0000000E+000	0.0000000E+000	0.0000000E+000	9.6703510E+000	5.8685246E+000	8.0329651E+001	-9.810332422432533E-006	-2.1255728E-005	4.0030461E+003
2.2482016E+001	4.3419360E+002	7.0455833E+001	4.3987283E+002	-9.2169485E+000	6.265804216434481E+001	2.9169676E-001	-7.2891161E-002	1.0047730E+002	2.5777903E+000	1.000000000000000E+000	12	9.4361026E-003	2.1451888E-005	0	-2.237216792203314E-004	2.2440325E-003	3.6413519E-004	2.2733842E-003	9.2169485E+000	2.5777903E+003	1.5885980E+004	1.6093769E+004	-8.0783051E+001	0.0000000E+000	0.0000000E+000	0.0000000E+000	8.0783051E+001	0.0000000E+000	0.0000000E+000	0.0000000E+000	-8.0783051E+001	0.0000000E+000	0.0000000E+000	0.0000000E+000	-9.2169485E+000	0.0000000E+000	0.0000000E+000	0.0000000E+000	9.2169485E+000	6.1626353E+000	8.0783051E+001	-8.408746764617596E-006	-2.1262114E-005	4.0018125E+003
1.5358784E+001	4.4691034E+002	7.3407654E+001	4.5289905E+002	-9.3278751E+000	6.311645589277032E+001	2.9169497E-001	-7.2937138E-002	1.4116336E+002	3.7085304E+000	1.000000000000000E+000	12	9.4399843E-003	2.0843463E-005	0	-2.328540201073055E-004	2.1788010E-003	3.5788090E-004	2.2079975E-003	9.3278751E+000	3.7085293E+003	2.2577762E+004	2.2880309E+004	-8.0672127E+001	0.0000000E+000	0.0000000E+000	0.0000000E+000	8.0672127E+001	0.0000000E+000	0.0000000E+000	0.0000000E+000	-8.0672127E+001	0.0000000E+000	0.0000000E+000	0.0000000E+000	-9.3278751E+000	0.0000000E+000	0.0000000E+000	0.0000000E+000	9.3278751E+000	6.0880618E+000	8.0672127E+001	-9.132340886974105E-006	-2.1275397E-005	3.9992654E+003
1.0486581E+001	4.6133127E+002	8.0784607E+001	4.6835104E+002	-9.9324675E+000	6.356588039410417E+001	2.9169410E-001	-7.2886445E-002	1.8787007E+002	5.5894856E+000	1.000000000000000E+000	12	9.4445646E-003	2.0165568E-005	0	-2.419329552239716E-004	2.1031485E-003	3.6828636E-004	2.1351506E-003	9.9324675E+000	5.5894839E+003	3.1919504E+004	3.2405201E+004	-8.0067535E+001	0.0000000E+000	0.0000000E+000	0.0000000E+000	8.0067535E+001	0.0000000E+000	0.0000000E+000	0.0000000E+000	-8.0067535E+001	0.0000000E+000	0.0000000E+000	0.0000000E+000	-9.9324675E+000	0.0000000E+000	0.0000000E+000	0.0000000E+000	9.9324675E+000	5.7106333E+000	8.0067535E+001	-9.078935116666105E-006	-2.1260546E-005	4.0020349E+003
7.1543007E+000	4.7885107E+002	9.0012749E+001	4.8723776E+002	-1.0646028E+001	6.391289537053672E+001	2.9169521E-001	-7.2792903E-002	2.4714334E+002	8.4348059E+000	1.000000000000000E+000	12	9.4384970E-003	1.9371440E-005	0	-2.487312501259278E-004	2.0170589E-003	3.7915967E-004	2.0523861E-003	1.0646028E+001	8.4348047E+003	4.4871594E+004	4.5657484E+004	-7.9353973E+001	0.0000000E+000	0.0000000E+000	0.0000000E+000	7.9353973E+001	0.0000000E+000	0.0000000E+000	0.0000000E+000	-7.9353973E+001	0.0000000E+000	0.0000000E+000	0.0000000E+000	-1.0646028E+001	0.0000000E+000	0.0000000E+000	0.0000000E+000	1.0646028E+001	5.3198137E+000	7.9353973E+001	-6.798294901956179E-006	-2.1233342E-005	4.0071929E+003
4.8828125E+000	5.0427454E+002	1.0265716E+002	5.1461761E+002	-1.1506693E+001	6.439395859339857E+001	2.9169977E-001	-7.2801083E-002	3.1751251E+002	1.2634849E+001	1.000000000000000E+000	12	9.4370982E-003	1.8338078E-005	0	-2.584631557083461E-004	1.9041350E-003	3.8763229E-004	1.9431903E-003	1.1506693E+001	1.2634846E+004	6.2065148E+004	6.3338156E+004	-7.8493309E+001	0.0000000E+000	0.0000000E+000	0.0000000E+000	7.8493309E+001	0.0000000E+000	0.0000000E+000	0.0000000E+000	-7.8493309E+001	0.0000000E+000	0.0000000E+000	0.0000000E+000	-1.1506693E+001	0.0000000E+000	0.0000000E+000	0.0000000E+000	1.1506693E+001	4.9122200E+000	7.8493309E+001	-9.731905582418317E-006	-2.1236059E-005	4.0068054E+003
3.3329778E+000	5.3740826E+002	1.1276271E+002	5.4911115E+002	-1.1850280E+001	6.506922129218583E+001	2.9169884E-001	-7.2700784E-002	4.2346957E+002	1.7857996E+001	1.000000000000000E+000	12	9.4422782E-003	1.7195569E-005	0	-2.716842551231708E-004	1.7823123E-003	3.7397706E-004	1.8211249E-003	1.1850280E+001	1.7857998E+004	8.5108227E+004	8.6961594E+004	-7.8149719E+001	0.0000000E+000	0.0000000E+000	0.0000000E+000	7.8149719E+001	0.0000000E+000	0.0000000E+000	0.0000000E+000	-7.8149719E+001	0.0000000E+000	0.0000000E+000	0.0000000E+000	-1.1850280E+001	0.0000000E+000	0.0000000E+000	0.0000000E+000	1.1850280E+001	4.7658334E+000	7.8149719E+001	-1.322109941482468E-005	-2.1206735E-005	4.0123206E+003
