freq/Hz	Re(Z)/Ohm	-Im(Z)/Ohm	|Z|/Ohm	Phase(Z)/deg	time/s	<Ewe>/V	<I>/mA	Cs/µF	Cp/µF	cycle number	I Range	|Ewe|/V	|I|/A	Ns	(Q-Qo)/mA.h	Re(Y)/Ohm-1	Im(Y)/Ohm-1	|Y|/Ohm-1	Phase(Y)/deg	Re(C)/nF	Im(C)/nF	|C|/nF	Phase(C)/deg	Re(M)	Im(M)	|M|	Phase(M)/deg	Re(Permittivity)	Im(Permittivity)	|Permittivity|	Phase(Permittivity)/deg	Re(Resistivity)/Ohm.cm	Im(Resistivity)/Ohm.cm	|Resistivity|/Ohm.cm	Phase(Resistivity)/deg	Re(Conductivity)/mS/cm	Im(Conductivity)/mS/cm	|Conductivity|/mS/cm	Phase(Conductivity)/deg	Tan(Delta)	Loss Angle(Delta)/deg	dq/mA.h	Pwe/W	Rwe/Ohm	
1.0000371E+005	6.7647147E+000	2.2490640E+000	7.1287904E+000	-1.8390413E+001	5.166889486901346E+001	2.9167411E-001	-5.1554635E-002	7.0762342E-001	7.0432663E-002	1.000000000000000E+000	10	9.0735219E-003	1.2727997E-003	0	-2.063697918595669E-005	1.3311218E-001	4.4255793E-002	1.4027625E-001	1.8390413E+001	7.0432655E+001	2.1184674E+002	2.2324829E+002	-7.1609589E+001	0.0000000E+000	0.0000000E+000	0.0000000E+000	7.1609589E+001	0.0000000E+000	0.0000000E+000	0.0000000E+000	-7.1609589E+001	0.0000000E+000	0.0000000E+000	0.0000000E+000	-1.8390413E+001	0.0000000E+000	0.0000000E+000	0.0000000E+000	1.8390413E+001	3.0077910E+000	7.1609589E+001	-2.063697918595669E-005	-1.5037152E-005	5.6575728E+003
6.8261953E+004	6.8418608E+000	3.3456793E+000	7.6160769E+000	-2.6058697E+001	5.210588728977018E+001	2.9167464E-001	-5.0718945E-002	6.9687855E-001	1.3448167E-001	1.000000000000000E+000	10	1.0513861E-002	1.3804825E-003	0	-2.677698329460367E-005	1.1795370E-001	5.7679523E-002	1.3130119E-001	2.6058697E+001	1.3448167E+002	2.7501285E+002	3.0613297E+002	-6.3941303E+001	0.0000000E+000	0.0000000E+000	0.0000000E+000	6.3941303E+001	0.0000000E+000	0.0000000E+000	0.0000000E+000	-6.3941303E+001	0.0000000E+000	0.0000000E+000	0.0000000E+000	-2.6058697E+001	0.0000000E+000	0.0000000E+000	0.0000000E+000	2.6058697E+001	2.0449841E+000	6.3941299E+001	-6.140004108646988E-006	-1.4793430E-005	5.7508027E+003
4.6596645E+004	6.9872212E+000	4.8816729E+000	8.5236139E+000	-3.4940353E+001	5.254288333715522E+001	2.9167005E-001	-5.1106080E-002	6.9967580E-001	2.2950208E-001	1.000000000000000E+000	10	1.0763140E-002	1.2627437E-003	0	-2.979057979208624E-005	9.6173845E-002	6.7192547E-002	1.1732113E-001	3.4940353E+001	2.2950209E+002	3.2849026E+002	4.0072067E+002	-5.5059647E+001	0.0000000E+000	0.0000000E+000	0.0000000E+000	5.5059647E+001	0.0000000E+000	0.0000000E+000	0.0000000E+000	-5.5059647E+001	0.0000000E+000	0.0000000E+000	0.0000000E+000	-3.4940353E+001	0.0000000E+000	0.0000000E+000	0.0000000E+000	3.4940353E+001	1.4313170E+000	5.5059647E+001	-3.013596497482569E-006	-1.4906113E-005	5.7071499E+003
3.1806711E+004	7.2085285E+000	7.0715032E+000	1.0097972E+001	-4.4450230E+001	5.297988186459406E+001	2.9167727E-001	-5.0983243E-002	7.0760292E-001	3.4701225E-001	1.000000000000000E+000	10	1.0956297E-002	1.0849998E-003	0	-3.552843455881682E-005	7.0693307E-002	6.9349512E-002	9.9029787E-002	4.4450230E+001	3.4701224E+002	3.5373633E+002	4.9552689E+002	-4.5549770E+001	0.0000000E+000	0.0000000E+000	0.0000000E+000	4.5549770E+001	0.0000000E+000	0.0000000E+000	0.0000000E+000	-4.5549770E+001	0.0000000E+000	0.0000000E+000	0.0000000E+000	-4.4450230E+001	0.0000000E+000	0.0000000E+000	0.0000000E+000	4.4450230E+001	1.0193771E+000	4.5549774E+001	-5.737854766730581E-006	-1.4870653E-005	5.7210420E+003
2.1711699E+004	7.5844998E+000	1.0198760E+001	1.2709813E+001	-5.3362968E+001	5.341688156538294E+001	2.9167354E-001	-5.1204737E-002	7.1875185E-001	4.6280217E-001	1.000000000000000E+000	10	1.0623396E-002	8.3584205E-004	0	-4.143558295005157E-005	4.6951406E-002	6.3134834E-002	7.8679360E-002	5.3362968E+001	4.6280215E+002	3.4417154E+002	5.7674939E+002	-3.6637032E+001	0.0000000E+000	0.0000000E+000	0.0000000E+000	3.6637032E+001	0.0000000E+000	0.0000000E+000	0.0000000E+000	-3.6637032E+001	0.0000000E+000	0.0000000E+000	0.0000000E+000	-5.3362968E+001	0.0000000E+000	0.0000000E+000	0.0000000E+000	5.3362968E+001	7.4366879E-001	3.6637024E+001	-5.907148391234741E-006	-1.4935067E-005	5.6962217E+003
1.4817771E+004	8.2314310E+000	1.4681775E+001	1.6831844E+001	-6.0722553E+001	5.385288833270897E+001	2.9167542E-001	-5.1154494E-002	7.3157477E-001	5.5661184E-001	1.000000000000000E+000	10	1.0180478E-002	6.0483435E-004	0	-4.716156120572123E-005	2.9054400E-002	5.1822118E-002	5.9411194E-002	6.0722553E+001	5.5661188E+002	3.1206799E+002	6.3812476E+002	-2.9277447E+001	0.0000000E+000	0.0000000E+000	0.0000000E+000	2.9277447E+001	0.0000000E+000	0.0000000E+000	0.0000000E+000	-2.9277447E+001	0.0000000E+000	0.0000000E+000	0.0000000E+000	-6.0722553E+001	0.0000000E+000	0.0000000E+000	0.0000000E+000	6.0722553E+001	5.6065637E-001	2.9277451E+001	-5.725978255669664E-006	-1.4920509E-005	5.7018530E+003
1.0113567E+004	9.3363914E+000	2.1012369E+001	2.2993214E+001	-6.6043068E+001	5.414888474679901E+001	2.9167706E-001	-5.0692912E-002	7.4892914E-001	6.2544835E-001	1.000000000000000E+000	10	9.5324488E-003	4.1457661E-004	0	-5.089572010623912E-005	1.7659551E-002	3.9744373E-002	4.3491092E-002	6.6043068E+001	6.2544836E+002	2.7790442E+002	6.8440961E+002	-2.3956932E+001	0.0000000E+000	0.0000000E+000	0.0000000E+000	2.3956932E+001	0.0000000E+000	0.0000000E+000	0.0000000E+000	-2.3956932E+001	0.0000000E+000	0.0000000E+000	0.0000000E+000	-6.6043068E+001	0.0000000E+000	0.0000000E+000	0.0000000E+000	6.6043068E+001	4.4432837E-001	2.3956940E+001	-3.734158900517888E-006	-1.4785959E-005	5.7538037E+003
6.9048516E+003	1.1274388E+001	3.0117079E+001	3.2158207E+001	-6.9476517E+001	5.469887189290603E+001	2.9167631E-001	-4.4753753E-002	7.6533741E-001	6.7126650E-001	1.000000000000000E+000	10	9.9394647E-003	3.0908021E-004	0	-5.734289309186958E-005	1.0902077E-002	2.9122537E-002	3.1096261E-002	6.9476517E+001	6.7126654E+002	2.5128990E+002	7.1676031E+002	-2.0523483E+001	0.0000000E+000	0.0000000E+000	0.0000000E+000	2.0523483E+001	0.0000000E+000	0.0000000E+000	0.0000000E+000	-2.0523483E+001	0.0000000E+000	0.0000000E+000	0.0000000E+000	-6.9476517E+001	0.0000000E+000	0.0000000E+000	0.0000000E+000	6.9476517E+001	3.7435198E-001	2.0523483E+001	-6.447172985630460E-006	-1.3053609E-005	6.5173599E+003
4.7165098E+003	1.4773884E+001	4.2669598E+001	4.5154869E+001	-7.0902145E+001	5.564609183129505E+001	2.9169935E-001	-6.1412301E-002	7.9082578E-001	7.0616919E-001	1.000000000000000E+000	11	1.0061555E-002	2.2282325E-004	0	-7.182089654359556E-005	7.2457856E-003	2.0927114E-002	2.2146005E-002	7.0902145E+001	7.0616919E+002	2.4450339E+002	7.4729968E+002	-1.9097855E+001	0.0000000E+000	0.0000000E+000	0.0000000E+000	1.9097855E+001	0.0000000E+000	0.0000000E+000	0.0000000E+000	-1.9097855E+001	0.0000000E+000	0.0000000E+000	0.0000000E+000	-7.0902145E+001	0.0000000E+000	0.0000000E+000	0.0000000E+000	7.0902145E+001	3.4623912E-001	1.9097855E+001	-1.447800345172599E-005	-1.7913928E-005	4.7498521E+003
3.2169119E+003	2.1161489E+001	6.0102825E+001	6.3719372E+001	-7.0603439E+001	5.611335033347132E+001	2.9170007E-001	-6.1315980E-002	8.2316351E-001	7.3237395E-001	1.000000000000000E+000	11	9.0875579E-003	1.4261845E-004	0	-7.974118869755532E-005	5.2119861E-003	1.4803073E-002	1.5693814E-002	7.0603439E+001	7.3237390E+002	2.5786017E+002	7.7644281E+002	-1.9396561E+001	0.0000000E+000	0.0000000E+000	0.0000000E+000	1.9396561E+001	0.0000000E+000	0.0000000E+000	0.0000000E+000	-1.9396561E+001	0.0000000E+000	0.0000000E+000	0.0000000E+000	-7.0603439E+001	0.0000000E+000	0.0000000E+000	0.0000000E+000	7.0603439E+001	3.5208809E-001	1.9396561E+001	-7.920292153959762E-006	-1.7885875E-005	4.7573252E+003
2.1957024E+003	3.2741913E+001	8.3191376E+001	8.9402672E+001	-6.8516724E+001	5.680510031300946E+001	2.9169720E-001	-6.1503220E-002	8.7130123E-001	7.5443870E-001	1.000000000000000E+000	11	9.8457960E-003	1.1012865E-004	0	-9.139716393602349E-005	4.0964060E-003	1.0408240E-002	1.1185348E-002	6.8516724E+001	7.5443872E+002	2.9692697E+002	8.1076715E+002	-2.1483276E+001	0.0000000E+000	0.0000000E+000	0.0000000E+000	2.1483276E+001	0.0000000E+000	0.0000000E+000	0.0000000E+000	-2.1483276E+001	0.0000000E+000	0.0000000E+000	0.0000000E+000	-6.8516724E+001	0.0000000E+000	0.0000000E+000	0.0000000E+000	6.8516724E+001	3.9357340E-001	2.1483276E+001	-1.165597523846817E-005	-1.7940318E-005	4.7427954E+003
1.5004799E+003	5.2920803E+001	1.1177940E+002	1.2367394E+002	-6.4665268E+001	5.727110324180831E+001	2.9168773E-001	-6.1609413E-002	9.4891697E-001	7.7516705E-001	1.000000000000000E+000	11	9.6271141E-003	7.7842706E-005	0	-9.929039057307474E-005	3.4599516E-003	7.3081148E-003	8.0857780E-003	6.4665268E+001	7.7516699E+002	3.6699484E+002	8.5765326E+002	-2.5334732E+001	0.0000000E+000	0.0000000E+000	0.0000000E+000	2.5334732E+001	0.0000000E+000	0.0000000E+000	0.0000000E+000	-2.5334732E+001	0.0000000E+000	0.0000000E+000	0.0000000E+000	-6.4665268E+001	0.0000000E+000	0.0000000E+000	0.0000000E+000	6.4665268E+001	4.7343969E-001	2.5334732E+001	-7.893226637051249E-006	-1.7970709E-005	4.7344668E+003
1.0240167E+003	8.6274170E+001	1.4333775E+002	1.6729897E+002	-5.8956505E+001	5.773835102398880E+001	2.9169106E-001	-6.1499495E-002	1.0843076E+000	7.9595250E-001	1.000000000000000E+000	11	9.5180077E-003	5.6892211E-005	0	-1.071344263011577E-004	3.0824377E-003	5.1212274E-003	5.9773233E-003	5.8956505E+001	7.9595251E+002	4.7907928E+002	9.2900879E+002	-3.1043495E+001	0.0000000E+000	0.0000000E+000	0.0000000E+000	3.1043495E+001	0.0000000E+000	0.0000000E+000	0.0000000E+000	-3.1043495E+001	0.0000000E+000	0.0000000E+000	0.0000000E+000	-5.8956505E+001	0.0000000E+000	0.0000000E+000	0.0000000E+000	5.8956505E+001	6.0189426E-001	3.1043488E+001	-7.844035728082929E-006	-1.7938853E-005	4.7429829E+003
6.9843555E+002	1.3563405E+002	1.7064664E+002	2.1798364E+002	-5.1521481E+001	5.820759328626445E+001	2.9168770E-001	-6.1439876E-002	1.3353530E+000	8.1835872E-001	1.000000000000000E+000	11	9.4775129E-003	4.3478092E-005	0	-1.149685888383562E-004	2.8544399E-003	3.5912856E-003	4.5875004E-003	5.1521481E+001	8.1835870E+002	6.5045111E+002	1.0453696E+003	-3.8478519E+001	0.0000000E+000	0.0000000E+000	0.0000000E+000	3.8478519E+001	0.0000000E+000	0.0000000E+000	0.0000000E+000	-3.8478519E+001	0.0000000E+000	0.0000000E+000	0.0000000E+000	-5.1521481E+001	0.0000000E+000	0.0000000E+000	0.0000000E+000	5.1521481E+001	7.9482406E-001	3.8478516E+001	-7.834162537198510E-006	-1.7921257E-005	4.7475308E+003
4.7698422E+002	1.9713910E+002	1.8362447E+002	2.6941003E+002	-4.2967224E+001	5.867429984177579E+001	2.9168883E-001	-6.1578672E-002	1.8171282E+000	8.4414905E-001	1.000000000000000E+000	11	9.4509078E-003	3.5080015E-005	0	-1.228043213970506E-004	2.7160968E-003	2.5298980E-003	3.7118143E-003	4.2967224E+001	8.4414899E+002	9.0627783E+002	1.2385181E+003	-4.7032776E+001	0.0000000E+000	0.0000000E+000	0.0000000E+000	4.7032776E+001	0.0000000E+000	0.0000000E+000	0.0000000E+000	-4.7032776E+001	0.0000000E+000	0.0000000E+000	0.0000000E+000	-4.2967224E+001	0.0000000E+000	0.0000000E+000	0.0000000E+000	4.2967224E+001	1.0735993E+000	4.7032776E+001	-7.835732558694459E-006	-1.7961811E-005	4.7368481E+003
3.2552084E+002	2.5949933E+002	1.7938197E+002	3.1546442E+002	-3.4654625E+001	5.939685174272745E+001	2.9170308E-001	-6.2282227E-002	2.7256026E+000	8.8129109E-001	1.000000000000000E+000	12	9.5284507E-003	3.0204519E-005	0	-1.345349713966736E-004	2.6075670E-003	1.8025115E-003	3.1699296E-003	3.4654625E+001	8.8129114E+002	1.2749021E+003	1.5498546E+003	-5.5345375E+001	0.0000000E+000	0.0000000E+000	0.0000000E+000	5.5345375E+001	0.0000000E+000	0.0000000E+000	0.0000000E+000	-5.5345375E+001	0.0000000E+000	0.0000000E+000	0.0000000E+000	-3.4654625E+001	0.0000000E+000	0.0000000E+000	0.0000000E+000	3.4654625E+001	1.4466299E+000	5.5345375E+001	-1.173064999962300E-005	-1.8167917E-005	4.6835684E+003
2.2234798E+002	3.1259467E+002	1.5986803E+002	3.5110284E+002	-2.7086237E+001	5.985901891140020E+001	2.9170540E-001	-6.2310800E-002	4.4773941E+000	9.2828184E-001	1.000000000000000E+000	12	9.4842622E-003	2.7012775E-005	0	-1.423963748366631E-004	2.5357876E-003	1.2968595E-003	2.8481684E-003	2.7086237E+001	9.2828192E+002	1.8150970E+003	2.0386968E+003	-6.2913765E+001	0.0000000E+000	0.0000000E+000	0.0000000E+000	6.2913765E+001	0.0000000E+000	0.0000000E+000	0.0000000E+000	-6.2913765E+001	0.0000000E+000	0.0000000E+000	0.0000000E+000	-2.7086237E+001	0.0000000E+000	0.0000000E+000	0.0000000E+000	2.7086237E+001	1.9553295E+000	6.2913765E+001	-7.861403439989463E-006	-1.8176397E-005	4.6814580E+003
1.5179730E+002	3.5219739E+002	1.3441034E+002	3.7697366E+002	-2.0888533E+001	6.032180074663484E+001	2.9170343E-001	-6.2251624E-002	7.8005171E+000	9.9166900E-001	1.000000000000000E+000	12	9.4590550E-003	2.5092084E-005	0	-1.502427801222604E-004	2.4783583E-003	9.4582472E-004	2.6527052E-003	2.0888533E+001	9.9166907E+002	2.5984849E+003	2.7812822E+003	-6.9111465E+001	0.0000000E+000	0.0000000E+000	0.0000000E+000	6.9111465E+001	0.0000000E+000	0.0000000E+000	0.0000000E+000	-6.9111465E+001	0.0000000E+000	0.0000000E+000	0.0000000E+000	-2.0888533E+001	0.0000000E+000	0.0000000E+000	0.0000000E+000	2.0888533E+001	2.6203146E+000	6.9111465E+001	-7.846405285597338E-006	-1.8159013E-005	4.6858765E+003
1.0357484E+002	3.7979834E+002	1.1123135E+002	3.9575143E+002	-1.6323698E+001	6.079493026246200E+001	2.9171374E-001	-6.2267654E-002	1.3814610E+001	1.0913097E+000	1.000000000000000E+000	12	9.4523560E-003	2.3884579E-005	0	-1.582736335433057E-004	2.4249796E-003	7.1020250E-004	2.5268386E-003	1.6323698E+001	1.0913099E+003	3.7262666E+003	3.8827852E+003	-7.3676300E+001	0.0000000E+000	0.0000000E+000	0.0000000E+000	7.3676300E+001	0.0000000E+000	0.0000000E+000	0.0000000E+000	-7.3676300E+001	0.0000000E+000	0.0000000E+000	0.0000000E+000	-1.6323698E+001	0.0000000E+000	0.0000000E+000	0.0000000E+000	1.6323698E+001	3.4144902E+000	7.3676300E+001	-8.030853421045302E-006	-1.8164330E-005	4.6848359E+003
7.0747063E+001	3.9844824E+002	9.3737656E+001	4.0932596E+002	-1.3238494E+001	6.125801820451670E+001	2.9170683E-001	-6.2229302E-002	2.3999249E+001	1.2585986E+000	1.000000000000000E+000	12	9.4441231E-003	2.3072378E-005	0	-1.661547309961121E-004	2.3781175E-003	5.5946835E-004	2.4430407E-003	1.3238494E+001	1.2585985E+003	5.3498921E+003	5.4959453E+003	-7.6761505E+001	0.0000000E+000	0.0000000E+000	0.0000000E+000	7.6761505E+001	0.0000000E+000	0.0000000E+000	0.0000000E+000	-7.6761505E+001	0.0000000E+000	0.0000000E+000	0.0000000E+000	-1.3238494E+001	0.0000000E+000	0.0000000E+000	0.0000000E+000	1.3238494E+001	4.2506742E+000	7.6761505E+001	-7.881097452806405E-006	-1.8152712E-005	4.6876123E+003
4.8284920E+001	4.1295459E+002	8.1012306E+001	4.2082596E+002	-1.1099177E+001	6.174025169407832E+001	2.9170889E-001	-6.2260590E-002	4.0687187E+001	1.5078377E+000	1.000000000000000E+000	12	9.4405357E-003	2.2433349E-005	0	-1.743483185333247E-004	2.3318320E-003	4.5745249E-004	2.3762793E-003	1.1099177E+001	1.5078374E+003	7.6860977E+003	7.8326030E+003	-7.8900826E+001	0.0000000E+000	0.0000000E+000	0.0000000E+000	7.8900826E+001	0.0000000E+000	0.0000000E+000	0.0000000E+000	-7.8900826E+001	0.0000000E+000	0.0000000E+000	0.0000000E+000	-1.1099177E+001	0.0000000E+000	0.0000000E+000	0.0000000E+000	1.1099177E+001	5.0974302E+000	7.8900826E+001	-8.193587537212602E-006	-1.8161967E-005	4.6852896E+003
3.2944279E+001	4.2553430E+002	7.4673714E+001	4.3203659E+002	-9.9530525E+000	6.223364699745434E+001	2.9170609E-001	-6.2154550E-002	6.4695244E+001	1.9327105E+000	1.000000000000000E+000	12	9.4403056E-003	2.1850708E-005	0	-1.827311853456615E-004	2.2797831E-003	4.0006143E-004	2.3146188E-003	9.9530525E+000	1.9327100E+003	1.1013712E+004	1.1182004E+004	-8.0046951E+001	0.0000000E+000	0.0000000E+000	0.0000000E+000	8.0046951E+001	0.0000000E+000	0.0000000E+000	0.0000000E+000	-8.0046951E+001	0.0000000E+000	0.0000000E+000	0.0000000E+000	-9.9530525E+000	0.0000000E+000	0.0000000E+000	0.0000000E+000	9.9530525E+000	5.6985822E+000	8.0046951E+001	-8.382866812336754E-006	-1.8130861E-005	4.6932378E+003
2.2482016E+001	4.3804211E+002	7.3276024E+001	4.4412866E+002	-9.4965534E+000	6.265505957753703E+001	2.9170519E-001	-6.2261876E-002	9.6610199E+001	2.6298392E+000	1.000000000000000E+000	12	9.4432542E-003	2.1262429E-005	0	-1.898636513799029E-004	2.2207426E-003	3.7148755E-004	2.2515997E-003	9.4965534E+000	2.6298386E+003	1.5721108E+004	1.5939552E+004	-8.0503448E+001	0.0000000E+000	0.0000000E+000	0.0000000E+000	8.0503448E+001	0.0000000E+000	0.0000000E+000	0.0000000E+000	-8.0503448E+001	0.0000000E+000	0.0000000E+000	0.0000000E+000	-9.4965534E+000	0.0000000E+000	0.0000000E+000	0.0000000E+000	9.4965534E+000	5.9779735E+000	8.0503448E+001	-7.132466034241361E-006	-1.8162113E-005	4.6851333E+003
1.5358784E+001	4.5049741E+002	7.4854034E+001	4.5667389E+002	-9.4339981E+000	6.311347405263223E+001	2.9170743E-001	-6.2192827E-002	1.3843570E+002	3.7193425E+000	1.000000000000000E+000	12	9.4437152E-003	2.0679341E-005	0	-1.976473087895623E-004	2.1601303E-003	3.5892427E-004	2.1897464E-003	9.4339981E+000	3.7193425E+003	2.2384287E+004	2.2691184E+004	-8.0566002E+001	0.0000000E+000	0.0000000E+000	0.0000000E+000	8.0566002E+001	0.0000000E+000	0.0000000E+000	0.0000000E+000	-8.0566002E+001	0.0000000E+000	0.0000000E+000	0.0000000E+000	-9.4339981E+000	0.0000000E+000	0.0000000E+000	0.0000000E+000	9.4339981E+000	6.0183449E+000	8.0566002E+001	-7.783657409659401E-006	-1.8142109E-005	4.6903711E+003
1.0486581E+001	4.6288300E+002	8.2287163E+001	4.7014023E+002	-1.0080220E+001	6.356286058059777E+001	2.9171118E-001	-6.2232826E-002	1.8443959E+002	5.6501956E+000	1.000000000000000E+000	12	9.4407583E-003	2.0080728E-005	0	-2.053620743235802E-004	2.0941915E-003	3.7228648E-004	2.1270250E-003	1.0080220E+001	5.6501968E+003	3.1783563E+004	3.2281877E+004	-7.9919777E+001	0.0000000E+000	0.0000000E+000	0.0000000E+000	7.9919777E+001	0.0000000E+000	0.0000000E+000	0.0000000E+000	-7.9919777E+001	0.0000000E+000	0.0000000E+000	0.0000000E+000	-1.0080220E+001	0.0000000E+000	0.0000000E+000	0.0000000E+000	1.0080220E+001	5.6252151E+000	7.9919777E+001	-7.714765534017932E-006	-1.8154011E-005	4.6874165E+003
7.1543007E+000	4.8099487E+002	9.0934517E+001	4.8951523E+002	-1.0705704E+001	6.390987923709326E+001	2.9171216E-001	-6.2197149E-002	2.4463815E+002	8.4420767E+000	1.000000000000000E+000	12	9.4352430E-003	1.9274667E-005	0	-2.113125892762465E-004	2.0072805E-003	3.7948653E-004	2.0428374E-003	1.0705704E+001	8.4420762E+003	4.4654059E+004	4.5445063E+004	-7.9294296E+001	0.0000000E+000	0.0000000E+000	0.0000000E+000	7.9294296E+001	0.0000000E+000	0.0000000E+000	0.0000000E+000	-7.9294296E+001	0.0000000E+000	0.0000000E+000	0.0000000E+000	-1.0705704E+001	0.0000000E+000	0.0000000E+000	0.0000000E+000	1.0705704E+001	5.2894640E+000	7.9294296E+001	-5.950514952666292E-006	-1.8143664E-005	4.6901211E+003
4.8828125E+000	5.0079816E+002	1.0495605E+002	5.1167819E+002	-1.1836595E+001	6.439097381991451E+001	2.9170132E-001	-6.2206957E-002	3.1055792E+002	1.3066635E+001	1.000000000000000E+000	12	9.4386991E-003	1.8446553E-005	0	-2.195054308835437E-004	1.9127972E-003	4.0087933E-004	1.9543534E-003	1.1836595E+001	1.3066634E+004	6.2347496E+004	6.3702020E+004	-7.8163406E+001	0.0000000E+000	0.0000000E+000	0.0000000E+000	7.8163406E+001	0.0000000E+000	0.0000000E+000	0.0000000E+000	-7.8163406E+001	0.0000000E+000	0.0000000E+000	0.0000000E+000	-1.1836595E+001	0.0000000E+000	0.0000000E+000	0.0000000E+000	1.1836595E+001	4.7715034E+000	7.8163406E+001	-8.192841607297164E-006	-1.8145851E-005	4.6892070E+003
3.3329778E+000	5.2670081E+002	1.2394062E+002	5.4108691E+002	-1.3241655E+001	6.506623057204706E+001	2.9171407E-001	-6.2089618E-002	3.8527786E+002	2.0214701E+001	1.000000000000000E+000	12	9.4413748E-003	1.7448907E-005	0	-2.306933465941612E-004	1.7989950E-003	4.2333055E-004	1.8481319E-003	1.3241655E+001	2.0214697E+004	8.5904844E+004	8.8251211E+004	-7.6758347E+001	0.0000000E+000	0.0000000E+000	0.0000000E+000	7.6758347E+001	0.0000000E+000	0.0000000E+000	0.0000000E+000	-7.6758347E+001	0.0000000E+000	0.0000000E+000	0.0000000E+000	-1.3241655E+001	0.0000000E+000	0.0000000E+000	0.0000000E+000	1.3241655E+001	4.2496223E+000	7.6758347E+001	-1.118791571061754E-005	-1.8112416E-005	4.6982744E+003
