freq/Hz	Re(Z)/Ohm	-Im(Z)/Ohm	|Z|/Ohm	Phase(Z)/deg	time/s	<Ewe>/V	<I>/mA	Cs/µF	Cp/µF	cycle number	I Range	|Ewe|/V	|I|/A	Ns	(Q-Qo)/mA.h	Re(Y)/Ohm-1	Im(Y)/Ohm-1	|Y|/Ohm-1	Phase(Y)/deg	Re(C)/nF	Im(C)/nF	|C|/nF	Phase(C)/deg	Re(M)	Im(M)	|M|	Phase(M)/deg	Re(Permittivity)	Im(Permittivity)	|Permittivity|	Phase(Permittivity)/deg	Re(Resistivity)/Ohm.cm	Im(Resistivity)/Ohm.cm	|Resistivity|/Ohm.cm	Phase(Resistivity)/deg	Re(Conductivity)/mS/cm	Im(Conductivity)/mS/cm	|Conductivity|/mS/cm	Phase(Conductivity)/deg	Tan(Delta)	Loss Angle(Delta)/deg	dq/mA.h	Pwe/W	Rwe/Ohm	
1.0000371E+005	6.7807417E+000	2.1434650E+000	7.1114626E+000	-1.7542303E+001	5.166989302905858E+001	2.9169050E-001	-3.0131944E-002	7.4248487E-001	6.7453198E-002	1.000000000000000E+000	10	9.0357689E-003	1.2705922E-003	0	-1.201783429526000E-005	1.3407856E-001	4.2383671E-002	1.4061806E-001	1.7542303E+001	6.7453209E+001	2.1338474E+002	2.2379227E+002	-7.2457695E+001	0.0000000E+000	0.0000000E+000	0.0000000E+000	7.2457695E+001	0.0000000E+000	0.0000000E+000	0.0000000E+000	-7.2457695E+001	0.0000000E+000	0.0000000E+000	0.0000000E+000	-1.7542303E+001	0.0000000E+000	0.0000000E+000	0.0000000E+000	1.7542303E+001	3.1634488E+000	7.2457695E+001	-1.201783429526000E-005	-8.7892013E-006	9.6804404E+003
6.8261953E+004	6.8595161E+000	3.1867731E+000	7.5636292E+000	-2.4918493E+001	5.210687680981937E+001	2.9168513E-001	-2.9277641E-002	7.3162794E-001	1.2987696E-001	1.000000000000000E+000	10	1.0502908E-002	1.3886070E-003	0	-1.404050862771045E-005	1.1990383E-001	5.5704553E-002	1.3221167E-001	2.4918493E+001	1.2987695E+002	2.7955960E+002	3.0825574E+002	-6.5081505E+001	0.0000000E+000	0.0000000E+000	0.0000000E+000	6.5081505E+001	0.0000000E+000	0.0000000E+000	0.0000000E+000	-6.5081505E+001	0.0000000E+000	0.0000000E+000	0.0000000E+000	-2.4918493E+001	0.0000000E+000	0.0000000E+000	0.0000000E+000	2.4918493E+001	2.1524959E+000	6.5081505E+001	-2.022674332450454E-006	-8.5398524E-006	9.9627266E+003
4.6596645E+004	7.0207334E+000	4.6433682E+000	8.4173374E+000	-3.3479828E+001	5.254387624390074E+001	2.9167646E-001	-3.1300794E-002	7.3558420E-001	2.2384590E-001	1.000000000000000E+000	10	1.0781756E-002	1.2808986E-003	0	-1.880260027331921E-005	9.9090725E-002	6.5536566E-002	1.1880241E-001	3.3479828E+001	2.2384590E+002	3.3845309E+002	4.0578009E+002	-5.6520172E+001	0.0000000E+000	0.0000000E+000	0.0000000E+000	5.6520172E+001	0.0000000E+000	0.0000000E+000	0.0000000E+000	-5.6520172E+001	0.0000000E+000	0.0000000E+000	0.0000000E+000	-3.3479828E+001	0.0000000E+000	0.0000000E+000	0.0000000E+000	3.3479828E+001	1.5119915E+000	5.6520172E+001	-4.762091645608762E-006	-9.1297052E-006	9.3185000E+003
3.1806711E+004	7.2379475E+000	6.7138805E+000	9.8723898E+000	-4.2848835E+001	5.298087778463378E+001	2.9166791E-001	-3.0934138E-002	7.4529427E-001	3.4469137E-001	1.000000000000000E+000	10	1.0856733E-002	1.0997066E-003	0	-2.178495742781605E-005	7.4262716E-002	6.8885691E-002	1.0129260E-001	4.2848835E+001	3.4469138E+002	3.7159702E+002	5.0684958E+002	-4.7151165E+001	0.0000000E+000	0.0000000E+000	0.0000000E+000	4.7151165E+001	0.0000000E+000	0.0000000E+000	0.0000000E+000	-4.7151165E+001	0.0000000E+000	0.0000000E+000	0.0000000E+000	-4.2848835E+001	0.0000000E+000	0.0000000E+000	0.0000000E+000	4.2848835E+001	1.0780573E+000	4.7151169E+001	-2.982357154496841E-006	-9.0224958E-006	9.4286738E+003
2.1711699E+004	7.6139188E+000	9.6631336E+000	1.2302354E+001	-5.1764198E+001	5.341787868543179E+001	2.9167897E-001	-3.0409276E-002	7.5859219E-001	4.6802375E-001	1.000000000000000E+000	10	1.0635610E-002	8.6451828E-004	0	-2.498078962083996E-005	5.0307393E-002	6.3847162E-002	8.1285261E-002	5.1764198E+001	4.6802371E+002	3.6877213E+002	5.9585156E+002	-3.8235802E+001	0.0000000E+000	0.0000000E+000	0.0000000E+000	3.8235802E+001	0.0000000E+000	0.0000000E+000	0.0000000E+000	-3.8235802E+001	0.0000000E+000	0.0000000E+000	0.0000000E+000	-5.1764198E+001	0.0000000E+000	0.0000000E+000	0.0000000E+000	5.1764198E+001	7.8793478E-001	3.8235809E+001	-3.195832193023913E-006	-8.8697461E-006	9.5917764E+003
1.4817771E+004	8.2592297E+000	1.3854518E+001	1.6129555E+001	-5.9199150E+001	5.385489390618750E+001	2.9168329E-001	-3.0770367E-002	7.7525729E-001	5.7198405E-001	1.000000000000000E+000	10	1.0304168E-002	6.3883769E-004	0	-2.771569242947994E-005	3.1746417E-002	5.3253315E-002	6.1997991E-002	5.9199150E+001	5.7198413E+002	3.4098245E+002	6.6590906E+002	-3.0800850E+001	0.0000000E+000	0.0000000E+000	0.0000000E+000	3.0800850E+001	0.0000000E+000	0.0000000E+000	0.0000000E+000	-3.0800850E+001	0.0000000E+000	0.0000000E+000	0.0000000E+000	-5.9199150E+001	0.0000000E+000	0.0000000E+000	0.0000000E+000	5.9199150E+001	5.9613979E-001	3.0800842E+001	-2.734902808639971E-006	-8.9752020E-006	9.4793564E+003
1.0113567E+004	9.3123178E+000	1.9811340E+001	2.1890831E+001	-6.4824135E+001	5.415088917352841E+001	2.9168218E-001	-3.1105386E-002	7.9433167E-001	6.5058661E-001	1.000000000000000E+000	10	9.7119128E-003	4.4365210E-004	0	-3.038344376598899E-005	1.9432709E-002	4.1341800E-002	4.5681227E-002	6.4824135E+001	6.5058667E+002	3.0580817E+002	7.1887524E+002	-2.5175865E+001	0.0000000E+000	0.0000000E+000	0.0000000E+000	2.5175865E+001	0.0000000E+000	0.0000000E+000	0.0000000E+000	-2.5175865E+001	0.0000000E+000	0.0000000E+000	0.0000000E+000	-6.4824135E+001	0.0000000E+000	0.0000000E+000	0.0000000E+000	6.4824135E+001	4.7004986E-001	2.5175873E+001	-2.667751336509050E-006	-9.0728872E-006	9.3772246E+003
6.9048516E+003	1.1141457E+001	2.8332045E+001	3.0443995E+001	-6.8532974E+001	5.452486775131547E+001	2.9168156E-001	-2.5691092E-002	8.1355685E-001	7.0459646E-001	1.000000000000000E+000	10	9.1688372E-003	3.0117063E-004	0	-3.272949923972353E-005	1.2020948E-002	3.0568535E-002	3.2847200E-002	6.8532974E+001	7.0459637E+002	2.7707956E+002	7.5711896E+002	-2.1467026E+001	0.0000000E+000	0.0000000E+000	0.0000000E+000	2.1467026E+001	0.0000000E+000	0.0000000E+000	0.0000000E+000	-2.1467026E+001	0.0000000E+000	0.0000000E+000	0.0000000E+000	-6.8532974E+001	0.0000000E+000	0.0000000E+000	0.0000000E+000	6.8532974E+001	3.9324576E-001	2.1467026E+001	-2.346055473734548E-006	-7.4936179E-006	1.1353412E+004
4.7165098E+003	1.4420209E+001	4.0138943E+001	4.2650642E+001	-7.0238800E+001	5.569608239366789E+001	2.9171410E-001	-4.1100595E-002	8.4068537E-001	7.4458480E-001	1.000000000000000E+000	11	1.0174215E-002	2.3854776E-004	0	-4.391091646099125E-005	7.9272129E-003	2.2065552E-002	2.3446307E-002	7.0238800E+001	7.4458484E+002	2.6749759E+002	7.9117731E+002	-1.9761200E+001	0.0000000E+000	0.0000000E+000	0.0000000E+000	1.9761200E+001	0.0000000E+000	0.0000000E+000	0.0000000E+000	-1.9761200E+001	0.0000000E+000	0.0000000E+000	0.0000000E+000	-7.0238800E+001	0.0000000E+000	0.0000000E+000	0.0000000E+000	7.0238800E+001	3.5925731E-001	1.9761200E+001	-1.118141722126772E-005	-1.1989623E-005	7.0975640E+003
3.2169119E+003	2.0356394E+001	5.6448215E+001	6.0006531E+001	-7.0169647E+001	5.616336614917964E+001	2.9169944E-001	-4.1066874E-002	8.7645733E-001	7.7559346E-001	1.000000000000000E+000	11	9.1437763E-003	1.5237968E-004	0	-4.926716437795726E-005	5.6533231E-003	1.5676647E-002	1.6664853E-002	7.0169647E+001	7.7559344E+002	2.7969504E+002	8.2448438E+002	-1.9830353E+001	0.0000000E+000	0.0000000E+000	0.0000000E+000	1.9830353E+001	0.0000000E+000	0.0000000E+000	0.0000000E+000	-1.9830353E+001	0.0000000E+000	0.0000000E+000	0.0000000E+000	-7.0169647E+001	0.0000000E+000	0.0000000E+000	0.0000000E+000	7.0169647E+001	3.6062068E-001	1.9830353E+001	-5.356247916966010E-006	-1.1979184E-005	7.1030352E+003
2.1957024E+003	3.0916513E+001	7.8161514E+001	8.4053871E+001	-6.8418900E+001	5.685608295543352E+001	2.9169586E-001	-4.1127801E-002	9.2737132E-001	8.0190736E-001	1.000000000000000E+000	11	9.8742675E-003	1.1747547E-004	0	-5.700954855437319E-005	4.3759774E-003	1.1063118E-002	1.1897132E-002	6.8418900E+001	8.0190735E+002	3.1719162E+002	8.6236066E+002	-2.1581100E+001	0.0000000E+000	0.0000000E+000	0.0000000E+000	2.1581100E+001	0.0000000E+000	0.0000000E+000	0.0000000E+000	-2.1581100E+001	0.0000000E+000	0.0000000E+000	0.0000000E+000	-6.8418900E+001	0.0000000E+000	0.0000000E+000	0.0000000E+000	6.8418900E+001	3.9554650E-001	2.1581100E+001	-7.742384176415928E-006	-1.1996809E-005	7.0924253E+003
1.5004799E+003	4.9242184E+001	1.0505585E+002	1.1602381E+002	-6.4886391E+001	5.732308868427936E+001	2.9169595E-001	-4.1135065E-002	1.0096474E+000	8.2778198E-001	1.000000000000000E+000	11	9.6362652E-003	8.3054205E-005	0	-6.227136322728417E-005	3.6579948E-003	7.8041563E-003	8.6189201E-003	6.4886391E+001	8.2778192E+002	3.8800116E+002	9.1420337E+002	-2.5113609E+001	0.0000000E+000	0.0000000E+000	0.0000000E+000	2.5113609E+001	0.0000000E+000	0.0000000E+000	0.0000000E+000	-2.5113609E+001	0.0000000E+000	0.0000000E+000	0.0000000E+000	-6.4886391E+001	0.0000000E+000	0.0000000E+000	0.0000000E+000	6.4886391E+001	4.6872383E-001	2.5113617E+001	-5.261814672910982E-006	-1.1998932E-005	7.0911753E+003
1.0240167E+003	7.9730186E+001	1.3558751E+002	1.5729233E+002	-5.9542988E+001	5.779032958645257E+001	2.9169133E-001	-4.1078430E-002	1.1462871E+000	8.5176086E-001	1.000000000000000E+000	11	9.5306570E-003	6.0592003E-005	0	-6.756653876402399E-005	3.2226096E-003	5.4803039E-003	6.3575893E-003	5.9542988E+001	8.5176086E+002	5.0086508E+002	9.8811053E+002	-3.0457012E+001	0.0000000E+000	0.0000000E+000	0.0000000E+000	3.0457012E+001	0.0000000E+000	0.0000000E+000	0.0000000E+000	-3.0457012E+001	0.0000000E+000	0.0000000E+000	0.0000000E+000	-5.9542988E+001	0.0000000E+000	0.0000000E+000	0.0000000E+000	5.9542988E+001	5.8803487E-001	3.0457016E+001	-5.295175536739816E-006	-1.1982222E-005	7.1008394E+003
6.9843555E+002	1.2562220E+002	1.6360666E+002	2.0627185E+002	-5.2481842E+001	5.825959835536196E+001	2.9169476E-001	-4.1250948E-002	1.3928131E+000	8.7622339E-001	1.000000000000000E+000	11	9.4779367E-003	4.5948764E-005	0	-7.282945114731936E-005	2.9524767E-003	3.8452188E-003	4.8479713E-003	5.2481842E+001	8.7622339E+002	6.7279114E+002	1.1047241E+003	-3.7518158E+001	0.0000000E+000	0.0000000E+000	0.0000000E+000	3.7518158E+001	0.0000000E+000	0.0000000E+000	0.0000000E+000	-3.7518158E+001	0.0000000E+000	0.0000000E+000	0.0000000E+000	-5.2481842E+001	0.0000000E+000	0.0000000E+000	0.0000000E+000	5.2481842E+001	7.6783061E-001	3.7518158E+001	-5.262912383295371E-006	-1.2032685E-005	7.0712256E+003
4.7698422E+002	1.8355452E+002	1.7964330E+002	2.5683453E+002	-4.4383015E+001	5.872633957758080E+001	2.9169497E-001	-4.1245919E-002	1.8573985E+000	9.0869951E-001	1.000000000000000E+000	11	9.4542867E-003	3.6810809E-005	0	-7.804162580418677E-005	2.7826480E-003	2.7233546E-003	3.8935575E-003	4.4383015E+001	9.0869952E+002	9.2848389E+002	1.2991602E+003	-4.5616985E+001	0.0000000E+000	0.0000000E+000	0.0000000E+000	4.5616985E+001	0.0000000E+000	0.0000000E+000	0.0000000E+000	-4.5616985E+001	0.0000000E+000	0.0000000E+000	0.0000000E+000	-4.4383015E+001	0.0000000E+000	0.0000000E+000	0.0000000E+000	4.4383015E+001	1.0217721E+000	4.5616989E+001	-5.212174656867409E-006	-1.2031227E-005	7.0720928E+003
3.2552084E+002	2.4546136E+002	1.7863052E+002	3.0357889E+002	-3.6044647E+001	5.944783022513730E+001	2.9172355E-001	-4.1997906E-002	2.7370684E+000	9.4766289E-001	1.000000000000000E+000	12	9.5335860E-003	3.1403983E-005	0	-8.589247014963965E-005	2.6634221E-003	1.9382623E-003	3.2940367E-003	3.6044647E+001	9.4766290E+002	1.3022109E+003	1.6105336E+003	-5.3955353E+001	0.0000000E+000	0.0000000E+000	0.0000000E+000	5.3955353E+001	0.0000000E+000	0.0000000E+000	0.0000000E+000	-5.3955353E+001	0.0000000E+000	0.0000000E+000	0.0000000E+000	-3.6044647E+001	0.0000000E+000	0.0000000E+000	0.0000000E+000	3.6044647E+001	1.3741289E+000	5.3955353E+001	-7.850844345452877E-006	-1.2251779E-005	6.9461450E+003
2.2234798E+002	3.0054398E+002	1.6296005E+002	3.4188107E+002	-2.8467300E+001	5.991104848720352E+001	2.9172021E-001	-4.2025395E-002	4.3924394E+000	9.9797112E-001	1.000000000000000E+000	12	9.4948569E-003	2.7772398E-005	0	-9.118292131824708E-005	2.5713306E-003	1.3942191E-003	2.9249936E-003	2.8467300E+001	9.9797119E+002	1.8405385E+003	2.0936877E+003	-6.1532700E+001	0.0000000E+000	0.0000000E+000	0.0000000E+000	6.1532700E+001	0.0000000E+000	0.0000000E+000	0.0000000E+000	-6.1532700E+001	0.0000000E+000	0.0000000E+000	0.0000000E+000	-2.8467300E+001	0.0000000E+000	0.0000000E+000	0.0000000E+000	2.8467300E+001	1.8442800E+000	6.1532700E+001	-5.290451168607436E-006	-1.2259657E-005	6.9415225E+003
1.5179730E+002	3.4201730E+002	1.3930528E+002	3.6929907E+002	-2.2161303E+001	6.037276981575997E+001	2.9171681E-001	-4.2021181E-002	7.5264206E+000	1.0709451E+000	1.000000000000000E+000	12	9.4600329E-003	2.5616184E-005	0	-9.646564544740118E-005	2.5077928E-003	1.0214361E-003	2.7078325E-003	2.2161303E+001	1.0709451E+003	2.6293457E+003	2.8390813E+003	-6.7838699E+001	0.0000000E+000	0.0000000E+000	0.0000000E+000	6.7838699E+001	0.0000000E+000	0.0000000E+000	0.0000000E+000	-6.7838699E+001	0.0000000E+000	0.0000000E+000	0.0000000E+000	-2.2161303E+001	0.0000000E+000	0.0000000E+000	0.0000000E+000	2.2161303E+001	2.4551640E+000	6.7838699E+001	-5.282724129154095E-006	-1.2258285E-005	6.9421372E+003
1.0357484E+002	3.7242242E+002	1.1683146E+002	3.9031787E+002	-1.7416998E+001	6.084589405157021E+001	2.9171401E-001	-4.2033315E-002	1.3152431E+001	1.1783892E+000	1.000000000000000E+000	12	9.4506145E-003	2.4212610E-005	0	-1.019084047317249E-004	2.4445502E-003	7.6687208E-004	2.5620144E-003	1.7416998E+001	1.1783893E+003	3.7563386E+003	3.9368364E+003	-7.2583000E+001	0.0000000E+000	0.0000000E+000	0.0000000E+000	7.2583000E+001	0.0000000E+000	0.0000000E+000	0.0000000E+000	-7.2583000E+001	0.0000000E+000	0.0000000E+000	0.0000000E+000	-1.7416998E+001	0.0000000E+000	0.0000000E+000	0.0000000E+000	1.7416998E+001	3.1876895E+000	7.2583000E+001	-5.442759284323681E-006	-1.2261707E-005	6.9400669E+003
7.0747063E+001	3.9278683E+002	9.8622261E+001	4.0497882E+002	-1.4094652E+001	6.130905367360538E+001	2.9171345E-001	-4.1969761E-002	2.2810604E+001	1.3527640E+000	1.000000000000000E+000	12	9.4465017E-003	2.3325916E-005	0	-1.072394061322027E-004	2.3949270E-003	6.0132646E-004	2.4692649E-003	1.4094652E+001	1.3527638E+003	5.3877075E+003	5.5549404E+003	-7.5905350E+001	0.0000000E+000	0.0000000E+000	0.0000000E+000	7.5905350E+001	0.0000000E+000	0.0000000E+000	0.0000000E+000	-7.5905350E+001	0.0000000E+000	0.0000000E+000	0.0000000E+000	-1.4094652E+001	0.0000000E+000	0.0000000E+000	0.0000000E+000	1.4094652E+001	3.9827402E+000	7.5905350E+001	-5.331001400477872E-006	-1.2243144E-005	6.9505625E+003
4.8284920E+001	4.0872763E+002	8.6077477E+001	4.1769321E+002	-1.1892625E+001	6.179024876310723E+001	2.9171854E-001	-4.1905075E-002	3.8292976E+001	1.6262351E+000	1.000000000000000E+000	12	9.4409008E-003	2.2602477E-005	0	-1.127427006124184E-004	2.3427135E-003	4.9337221E-004	2.3941016E-003	1.1892625E+001	1.6262350E+003	7.7219644E+003	7.8913481E+003	-7.8107376E+001	0.0000000E+000	0.0000000E+000	0.0000000E+000	7.8107376E+001	0.0000000E+000	0.0000000E+000	0.0000000E+000	-7.8107376E+001	0.0000000E+000	0.0000000E+000	0.0000000E+000	-1.1892625E+001	0.0000000E+000	0.0000000E+000	0.0000000E+000	1.1892625E+001	4.7483692E+000	7.8107376E+001	-5.503294480215716E-006	-1.2224487E-005	6.9614131E+003
3.2944279E+001	4.2285413E+002	7.9585548E+001	4.3027835E+002	-1.0658971E+001	6.228365713320090E+001	2.9170501E-001	-4.1863456E-002	6.0702408E+001	2.0767076E+000	1.000000000000000E+000	12	9.4460919E-003	2.1953445E-005	0	-1.184007318203163E-004	2.2839762E-003	4.2986809E-004	2.3240771E-003	1.0658971E+001	2.0767080E+003	1.1033967E+004	1.1227695E+004	-7.9341026E+001	0.0000000E+000	0.0000000E+000	0.0000000E+000	7.9341026E+001	0.0000000E+000	0.0000000E+000	0.0000000E+000	-7.9341026E+001	0.0000000E+000	0.0000000E+000	0.0000000E+000	-1.0658971E+001	0.0000000E+000	0.0000000E+000	0.0000000E+000	1.0658971E+001	5.3132024E+000	7.9341026E+001	-5.658031207897803E-006	-1.2211780E-005	6.9680107E+003
2.2482016E+001	4.3543045E+002	7.6196274E+001	4.4204700E+002	-9.9257278E+000	6.270505277991106E+001	2.9171461E-001	-4.1947473E-002	9.2907578E+001	2.7604618E+000	1.000000000000000E+000	12	9.4376160E-003	2.1349802E-005	0	-1.231742593971012E-004	2.2283422E-003	3.8993914E-004	2.2622028E-003	9.9257278E+000	2.7604617E+003	1.5774906E+004	1.6014612E+004	-8.0074272E+001	0.0000000E+000	0.0000000E+000	0.0000000E+000	8.0074272E+001	0.0000000E+000	0.0000000E+000	0.0000000E+000	-8.0074272E+001	0.0000000E+000	0.0000000E+000	0.0000000E+000	-9.9257278E+000	0.0000000E+000	0.0000000E+000	0.0000000E+000	9.9257278E+000	5.7145896E+000	8.0074272E+001	-4.773527576784942E-006	-1.2236691E-005	6.9542832E+003
1.5358784E+001	4.4839691E+002	7.8410461E+001	4.5520105E+002	-9.9189301E+000	6.316346682832227E+001	2.9171196E-001	-4.1852407E-002	1.3215674E+002	3.9213066E+000	1.000000000000000E+000	12	9.4390949E-003	2.0736101E-005	0	-1.284010867692430E-004	2.1639941E-003	3.7841423E-004	2.1968314E-003	9.9189301E+000	3.9213064E+003	2.2424326E+004	2.2764602E+004	-8.0081070E+001	0.0000000E+000	0.0000000E+000	0.0000000E+000	8.0081070E+001	0.0000000E+000	0.0000000E+000	0.0000000E+000	-8.0081070E+001	0.0000000E+000	0.0000000E+000	0.0000000E+000	-9.9189301E+000	0.0000000E+000	0.0000000E+000	0.0000000E+000	9.9189301E+000	5.7185855E+000	8.0081070E+001	-5.226827372141794E-006	-1.2208848E-005	6.9700161E+003
1.0486581E+001	4.6317847E+002	8.4378601E+001	4.7080148E+002	-1.0324523E+001	6.361287695632200E+001	2.9170829E-001	-4.1895103E-002	1.7986800E+002	5.7775393E+000	1.000000000000000E+000	12	9.4400859E-003	2.0051097E-005	0	-1.335015679707891E-004	2.0896462E-003	3.8067705E-004	2.1240376E-003	1.0324523E+001	5.7775396E+003	3.1714576E+004	3.2236537E+004	-7.9675476E+001	0.0000000E+000	0.0000000E+000	0.0000000E+000	7.9675476E+001	0.0000000E+000	0.0000000E+000	0.0000000E+000	-7.9675476E+001	0.0000000E+000	0.0000000E+000	0.0000000E+000	-1.0324523E+001	0.0000000E+000	0.0000000E+000	0.0000000E+000	1.0324523E+001	5.4892883E+000	7.9675476E+001	-5.100481201546155E-006	-1.2221149E-005	6.9628257E+003
7.1543007E+000	4.8068225E+002	9.4385429E+001	4.8986124E+002	-1.1109104E+001	6.395989246611134E+001	2.9171988E-001	-4.1822851E-002	2.3569371E+002	8.7500744E+000	1.000000000000000E+000	12	9.4352728E-003	1.9261113E-005	0	-1.376811752595758E-004	2.0031428E-003	3.9333155E-004	2.0413944E-003	1.1109104E+001	8.7500713E+003	4.4562020E+004	4.5412965E+004	-7.8890900E+001	0.0000000E+000	0.0000000E+000	0.0000000E+000	7.8890900E+001	0.0000000E+000	0.0000000E+000	0.0000000E+000	-7.8890900E+001	0.0000000E+000	0.0000000E+000	0.0000000E+000	-1.1109104E+001	0.0000000E+000	0.0000000E+000	0.0000000E+000	1.1109104E+001	5.0927591E+000	7.8890900E+001	-4.179607288786629E-006	-1.2200557E-005	6.9751313E+003
4.8828125E+000	4.9993707E+002	1.0859537E+002	5.1159558E+002	-1.2255296E+001	6.444097195562790E+001	2.9171830E-001	-4.1940615E-002	3.0015030E+002	1.3524083E+001	1.000000000000000E+000	12	9.4356677E-003	1.8443607E-005	0	-1.429969725937933E-004	1.9101249E-003	4.1491364E-004	1.9546689E-003	1.2255296E+001	1.3524081E+004	6.2260395E+004	6.3712301E+004	-7.7744705E+001	0.0000000E+000	0.0000000E+000	0.0000000E+000	7.7744705E+001	0.0000000E+000	0.0000000E+000	0.0000000E+000	-7.7744705E+001	0.0000000E+000	0.0000000E+000	0.0000000E+000	-1.2255296E+001	0.0000000E+000	0.0000000E+000	0.0000000E+000	1.2255296E+001	4.6036687E+000	7.7744705E+001	-5.315797334217570E-006	-1.2234845E-005	6.9555088E+003
3.3329778E+000	5.2259448E+002	1.2480684E+002	5.3729114E+002	-1.3431874E+001	6.511627012109966E+001	2.9172364E-001	-4.1770127E-002	3.8260385E+002	2.0644613E+001	1.000000000000000E+000	12	9.4416505E-003	1.7572689E-005	0	-1.505496339348239E-004	1.8102789E-003	4.3233365E-004	1.8611883E-003	1.3431874E+001	2.0644617E+004	8.6443672E+004	8.8874680E+004	-7.6568123E+001	0.0000000E+000	0.0000000E+000	0.0000000E+000	7.6568123E+001	0.0000000E+000	0.0000000E+000	0.0000000E+000	-7.6568123E+001	0.0000000E+000	0.0000000E+000	0.0000000E+000	-1.3431874E+001	0.0000000E+000	0.0000000E+000	0.0000000E+000	1.3431874E+001	4.1872263E+000	7.6568123E+001	-7.552661341030521E-006	-1.2185334E-005	6.9840259E+003
