freq/Hz	Re(Z)/Ohm	-Im(Z)/Ohm	|Z|/Ohm	Phase(Z)/deg	time/s	<Ewe>/V	<I>/mA	Cs/µF	Cp/µF	cycle number	I Range	|Ewe|/V	|I|/A	Ns	(Q-Qo)/mA.h	Re(Y)/Ohm-1	Im(Y)/Ohm-1	|Y|/Ohm-1	Phase(Y)/deg	Re(C)/nF	Im(C)/nF	|C|/nF	Phase(C)/deg	Re(M)	Im(M)	|M|	Phase(M)/deg	Re(Permittivity)	Im(Permittivity)	|Permittivity|	Phase(Permittivity)/deg	Re(Resistivity)/Ohm.cm	Im(Resistivity)/Ohm.cm	|Resistivity|/Ohm.cm	Phase(Resistivity)/deg	Re(Conductivity)/mS/cm	Im(Conductivity)/mS/cm	|Conductivity|/mS/cm	Phase(Conductivity)/deg	Tan(Delta)	Loss Angle(Delta)/deg	dq/mA.h	Pwe/W	Rwe/Ohm	
1.0000371E+005	7.2816329E+000	2.7303457E+000	7.7766938E+000	-2.0554207E+001	3.163449376917561E+001	2.9164749E-001	5.6780013E-003	5.8288968E-001	7.1850806E-002	1.000000000000000E+000	10	9.1136638E-003	1.1719201E-003	0	-5.613499860276029E-005	1.2040341E-001	4.5146871E-002	1.2858935E-001	2.0554207E+001	7.1850815E+001	1.9162086E+002	2.0464871E+002	-6.9445793E+001	0.0000000E+000	0.0000000E+000	0.0000000E+000	6.9445793E+001	0.0000000E+000	0.0000000E+000	0.0000000E+000	-6.9445793E+001	0.0000000E+000	0.0000000E+000	0.0000000E+000	-2.0554207E+001	0.0000000E+000	0.0000000E+000	0.0000000E+000	2.0554207E+001	2.6669271E+000	6.9445793E+001	-5.613499860276029E-005	1.6559749E-006	5.1364465E+004
6.8289789E+004	7.3823152E+000	4.0175853E+000	8.4047346E+000	-2.8555807E+001	3.207148914996651E+001	2.9164189E-001	5.7059224E-003	5.8009517E-001	1.3255052E-001	1.000000000000000E+000	10	1.0511773E-002	1.2506966E-003	0	-5.556398511532461E-005	1.0450681E-001	5.6874432E-002	1.1898056E-001	2.8555807E+001	1.3255052E+002	2.4356165E+002	2.7729391E+002	-6.1444191E+001	0.0000000E+000	0.0000000E+000	0.0000000E+000	6.1444191E+001	0.0000000E+000	0.0000000E+000	0.0000000E+000	-6.1444191E+001	0.0000000E+000	0.0000000E+000	0.0000000E+000	-2.8555807E+001	0.0000000E+000	0.0000000E+000	0.0000000E+000	2.8555807E+001	1.8375006E+000	6.1444191E+001	5.710134874356744E-007	1.6640860E-006	5.1112137E+004
4.6633758E+004	7.5371575E+000	5.8224092E+000	9.5241375E+000	-3.7685871E+001	3.250847610403434E+001	2.9164657E-001	5.9404327E-003	5.8616114E-001	2.1906407E-001	1.000000000000000E+000	10	1.0813406E-002	1.1353685E-003	0	-5.459819118882458E-005	8.3091438E-002	6.4187638E-002	1.0499638E-001	3.7685871E+001	2.1906406E+002	2.8358026E+002	3.5833899E+002	-5.2314129E+001	0.0000000E+000	0.0000000E+000	0.0000000E+000	5.2314129E+001	0.0000000E+000	0.0000000E+000	0.0000000E+000	-5.2314129E+001	0.0000000E+000	0.0000000E+000	0.0000000E+000	-3.7685871E+001	0.0000000E+000	0.0000000E+000	0.0000000E+000	3.7685871E+001	1.2945083E+000	5.2314133E+001	9.657939265000310E-007	1.7325068E-006	4.9095172E+004
3.1843822E+004	7.7745762E+000	8.4185886E+000	1.1459349E+001	-4.7277489E+001	3.294548791149282E+001	2.9164630E-001	5.5235177E-003	5.9368438E-001	3.2041612E-001	1.000000000000000E+000	10	1.0921150E-002	9.5303409E-004	0	-5.226385038692711E-005	5.9204791E-002	6.4109057E-002	8.7264992E-002	4.7277489E+001	3.2041611E+002	2.9590466E+002	4.3614911E+002	-4.2722511E+001	0.0000000E+000	0.0000000E+000	0.0000000E+000	4.2722511E+001	0.0000000E+000	0.0000000E+000	0.0000000E+000	-4.2722511E+001	0.0000000E+000	0.0000000E+000	0.0000000E+000	-4.7277489E+001	0.0000000E+000	0.0000000E+000	0.0000000E+000	4.7277489E+001	9.2350113E-001	4.2722504E+001	2.334340801897467E-006	1.6109135E-006	5.2800828E+004
2.1748811E+004	8.1779556E+000	1.2132571E+001	1.4631413E+001	-5.6018074E+001	3.338347790561966E+001	2.9164070E-001	5.1400959E-003	6.0315889E-001	4.1472951E-001	1.000000000000000E+000	10	1.0592101E-002	7.2392880E-004	0	-5.115690457500103E-005	3.8200777E-002	5.6673538E-002	6.8346098E-002	5.6018074E+001	4.1472952E+002	2.7954828E+002	5.0014780E+002	-3.3981926E+001	0.0000000E+000	0.0000000E+000	0.0000000E+000	3.3981926E+001	0.0000000E+000	0.0000000E+000	0.0000000E+000	-3.3981926E+001	0.0000000E+000	0.0000000E+000	0.0000000E+000	-5.6018074E+001	0.0000000E+000	0.0000000E+000	0.0000000E+000	5.6018074E+001	6.7404968E-001	3.3981934E+001	1.106945811926079E-006	1.4990612E-006	5.6738375E+004
1.4845605E+004	8.8392429E+000	1.7453028E+001	1.9563751E+001	-6.3139656E+001	3.367949375967146E+001	2.9164243E-001	4.9707191E-003	6.1425889E-001	4.8886478E-001	1.000000000000000E+000	10	1.0940143E-002	5.5920478E-004	0	-5.104353346768767E-005	2.3094619E-002	4.5600176E-002	5.1114943E-002	6.3139656E+001	4.8886478E+002	2.4758995E+002	5.4798682E+002	-2.6860344E+001	0.0000000E+000	0.0000000E+000	0.0000000E+000	2.6860344E+001	0.0000000E+000	0.0000000E+000	0.0000000E+000	-2.6860344E+001	0.0000000E+000	0.0000000E+000	0.0000000E+000	-6.3139656E+001	0.0000000E+000	0.0000000E+000	0.0000000E+000	6.3139656E+001	5.0645900E-001	2.6860352E+001	1.133711073133674E-007	1.4496726E-006	5.8672078E+004
1.0141406E+004	9.9631634E+000	2.4980162E+001	2.6893738E+001	-6.8255760E+001	3.397548236037255E+001	2.9164422E-001	5.0861104E-003	6.2824160E-001	5.4201943E-001	1.000000000000000E+000	10	1.0225674E-002	3.8022510E-004	0	-5.086512232112323E-005	1.3775105E-002	3.4537662E-002	3.7183378E-002	6.8255760E+001	5.4201947E+002	2.1618068E+002	5.8354022E+002	-2.1744240E+001	0.0000000E+000	0.0000000E+000	0.0000000E+000	2.1744240E+001	0.0000000E+000	0.0000000E+000	0.0000000E+000	-2.1744240E+001	0.0000000E+000	0.0000000E+000	0.0000000E+000	-6.8255760E+001	0.0000000E+000	0.0000000E+000	0.0000000E+000	6.8255760E+001	3.9884302E-001	2.1744232E+001	1.784111465644368E-007	1.4833347E-006	5.7341305E+004
6.9219561E+003	1.1777107E+001	3.5793468E+001	3.7681198E+001	-7.1787270E+001	3.434794219143805E+001	2.9165319E-001	1.1477550E-002	6.4237332E-001	5.7962304E-001	1.000000000000000E+000	10	9.7117703E-003	2.5773517E-004	0	-4.965694693469363E-005	8.2944809E-003	2.5208928E-002	2.6538434E-002	7.1787270E+001	5.7962305E+002	1.9071309E+002	6.1019208E+002	-1.8212730E+001	0.0000000E+000	0.0000000E+000	0.0000000E+000	1.8212730E+001	0.0000000E+000	0.0000000E+000	0.0000000E+000	-1.8212730E+001	0.0000000E+000	0.0000000E+000	0.0000000E+000	-7.1787270E+001	0.0000000E+000	0.0000000E+000	0.0000000E+000	7.1787270E+001	3.2902950E-001	1.8212738E+001	1.208175386429602E-006	3.3474641E-006	2.5410752E+004
4.7265127E+003	1.5167641E+001	5.1014950E+001	5.3222012E+001	-7.3441864E+001	3.507370227926731E+001	2.9167077E-001	-3.3364350E-003	6.6005760E-001	6.0644889E-001	1.000000000000000E+000	11	1.0828209E-002	2.0345359E-004	0	-4.916424565897796E-005	5.3547034E-003	1.8010050E-002	1.8789219E-002	7.3441864E+001	6.0644891E+002	1.8030789E+002	6.3268573E+002	-1.6558136E+001	0.0000000E+000	0.0000000E+000	0.0000000E+000	1.6558136E+001	0.0000000E+000	0.0000000E+000	0.0000000E+000	-1.6558136E+001	0.0000000E+000	0.0000000E+000	0.0000000E+000	-7.3441864E+001	0.0000000E+000	0.0000000E+000	0.0000000E+000	7.3441864E+001	2.9731756E-001	1.6558136E+001	4.927012757156675E-007	-9.7314057E-007	8.7419891E+004
3.2310337E+003	2.1213747E+001	7.2235390E+001	7.5285950E+001	-7.3633789E+001	3.553971462140180E+001	2.9166383E-001	-3.3163163E-003	6.8191242E-001	6.2777036E-001	1.000000000000000E+000	11	9.9269543E-003	1.3185666E-004	0	-4.946385922928231E-005	3.7427391E-003	1.2744481E-002	1.3282691E-002	7.3633789E+001	6.2777032E+002	1.8436064E+002	6.5428162E+002	-1.6366211E+001	0.0000000E+000	0.0000000E+000	0.0000000E+000	1.6366211E+001	0.0000000E+000	0.0000000E+000	0.0000000E+000	-1.6366211E+001	0.0000000E+000	0.0000000E+000	0.0000000E+000	-7.3633789E+001	0.0000000E+000	0.0000000E+000	0.0000000E+000	7.3633789E+001	2.9367527E-001	1.6366211E+001	-2.996135703043444E-007	-9.6724955E-007	8.7948133E+004
2.2057056E+003	3.2125626E+001	1.0125458E+002	1.0622874E+002	-7.2397026E+001	3.600669835024746E+001	2.9166627E-001	-3.2678773E-003	7.1261990E-001	6.4744544E-001	1.000000000000000E+000	11	9.5226429E-003	8.9642810E-005	0	-4.980359940597110E-005	2.8468694E-003	8.9728534E-003	9.4136475E-003	7.2397026E+001	6.4744543E+002	2.0541878E+002	6.7925140E+002	-1.7602974E+001	0.0000000E+000	0.0000000E+000	0.0000000E+000	1.7602974E+001	0.0000000E+000	0.0000000E+000	0.0000000E+000	-1.7602974E+001	0.0000000E+000	0.0000000E+000	0.0000000E+000	-7.2397026E+001	0.0000000E+000	0.0000000E+000	0.0000000E+000	7.2397026E+001	3.1727579E-001	1.7602966E+001	-3.397401766887982E-007	-9.5312959E-007	8.9252516E+004
1.5054814E+003	5.1808788E+001	1.3979050E+002	1.4908231E+002	-6.9664421E+001	3.647367423909600E+001	2.9166317E-001	-3.2155265E-003	7.5625294E-001	6.6492122E-001	1.000000000000000E+000	11	9.3484689E-003	6.2706764E-005	0	-5.019670889813238E-005	2.3310478E-003	6.2896353E-003	6.7077042E-003	6.9664421E+001	6.6492120E+002	2.4643132E+002	7.0911816E+002	-2.0335579E+001	0.0000000E+000	0.0000000E+000	0.0000000E+000	2.0335579E+001	0.0000000E+000	0.0000000E+000	0.0000000E+000	-2.0335579E+001	0.0000000E+000	0.0000000E+000	0.0000000E+000	-6.9664421E+001	0.0000000E+000	0.0000000E+000	0.0000000E+000	6.9664421E+001	3.7061739E-001	2.0335571E+001	-3.931094921612766E-007	-9.3785064E-007	9.0704641E+004
1.0276981E+003	8.5552734E+001	1.8706682E+002	2.0570189E+002	-6.5423592E+001	3.694119138128008E+001	2.9166555E-001	-3.2451495E-003	8.2786173E-001	6.8465972E-001	1.000000000000000E+000	11	9.2622312E-003	4.5027449E-005	0	-5.061277481887778E-005	2.0218890E-003	4.4209971E-003	4.8614042E-003	6.5423592E+001	6.8465973E+002	3.1312076E+002	7.5286359E+002	-2.4576408E+001	0.0000000E+000	0.0000000E+000	0.0000000E+000	2.4576408E+001	0.0000000E+000	0.0000000E+000	0.0000000E+000	-2.4576408E+001	0.0000000E+000	0.0000000E+000	0.0000000E+000	-6.5423592E+001	0.0000000E+000	0.0000000E+000	0.0000000E+000	6.5423592E+001	4.5733783E-001	2.4576416E+001	-4.160659207453951E-007	-9.4649835E-007	8.9877383E+004
7.0202203E+002	1.4082420E+002	2.3841075E+002	2.7689554E+002	-5.9430550E+001	3.740818329676404E+001	2.9166478E-001	-3.2242837E-003	9.5091897E-001	7.0495808E-001	1.000000000000000E+000	11	9.2184730E-003	3.3292243E-005	0	-5.100829980345245E-005	1.8367303E-003	3.1095240E-003	3.6114703E-003	5.9430550E+001	7.0495807E+002	4.1640387E+002	8.1875397E+002	-3.0569450E+001	0.0000000E+000	0.0000000E+000	0.0000000E+000	3.0569450E+001	0.0000000E+000	0.0000000E+000	0.0000000E+000	-3.0569450E+001	0.0000000E+000	0.0000000E+000	0.0000000E+000	-5.9430550E+001	0.0000000E+000	0.0000000E+000	0.0000000E+000	5.9430550E+001	5.9067893E-001	3.0569458E+001	-3.955249845746711E-007	-9.4041002E-007	9.0458781E+004
4.7953964E+002	2.2240227E+002	2.8510001E+002	3.6158649E+002	-5.2042740E+001	3.813095687777968E+001	2.9167598E-001	-4.1022170E-003	1.1641217E+000	7.2371650E-001	1.000000000000000E+000	12	9.3378294E-003	2.5824609E-005	0	-5.171335694269106E-005	1.7010411E-003	2.1805842E-003	2.7655901E-003	5.2042740E+001	7.2371649E+002	5.6456042E+002	9.1787476E+002	-3.7957260E+001	0.0000000E+000	0.0000000E+000	0.0000000E+000	3.7957260E+001	0.0000000E+000	0.0000000E+000	0.0000000E+000	-3.7957260E+001	0.0000000E+000	0.0000000E+000	0.0000000E+000	-5.2042740E+001	0.0000000E+000	0.0000000E+000	0.0000000E+000	5.2042740E+001	7.8008509E-001	3.7957260E+001	-7.050571392386133E-007	-1.1965182E-006	7.1102039E+004
3.2762094E+002	3.2436771E+002	3.0738498E+002	4.4687799E+002	-4.3460148E+001	3.859615457986365E+001	2.9168087E-001	-4.1010431E-003	1.5803956E+000	7.4774438E-001	1.000000000000000E+000	12	9.2522111E-003	2.0704110E-005	0	-5.222727994725392E-005	1.6242755E-003	1.5392341E-003	2.2377472E-003	4.3460148E+001	7.4774445E+002	7.8905670E+002	1.0870751E+003	-4.6539852E+001	0.0000000E+000	0.0000000E+000	0.0000000E+000	4.6539852E+001	0.0000000E+000	0.0000000E+000	0.0000000E+000	-4.6539852E+001	0.0000000E+000	0.0000000E+000	0.0000000E+000	-4.3460148E+001	0.0000000E+000	0.0000000E+000	0.0000000E+000	4.3460148E+001	1.0552491E+000	4.6539856E+001	-5.139230045628562E-007	-1.1961959E-006	7.1123578E+004
2.2364027E+002	4.3127570E+002	2.9959134E+002	5.2512256E+002	-3.4786282E+001	3.906699028224102E+001	2.9168391E-001	-4.1203881E-003	2.3754222E+000	7.7317536E-001	1.000000000000000E+000	12	9.2188343E-003	1.7555587E-005	0	-5.275975699576520E-005	1.5639889E-003	1.0864453E-003	1.9043173E-003	3.4786282E+001	7.7317535E+002	1.1130221E+003	1.3552189E+003	-5.5213718E+001	0.0000000E+000	0.0000000E+000	0.0000000E+000	5.5213718E+001	0.0000000E+000	0.0000000E+000	0.0000000E+000	-5.5213718E+001	0.0000000E+000	0.0000000E+000	0.0000000E+000	-3.4786282E+001	0.0000000E+000	0.0000000E+000	0.0000000E+000	3.4786282E+001	1.4395466E+000	5.5213715E+001	-5.324770485112836E-007	-1.2018509E-006	7.0790398E+004
1.5270337E+002	5.1880688E+002	2.6684235E+002	5.8340845E+002	-2.7218502E+001	3.954176358481345E+001	2.9168990E-001	-4.0840087E-003	3.9058611E+000	8.1711060E-001	1.000000000000000E+000	12	9.1967322E-003	1.5763797E-005	0	-5.330373042090953E-005	1.5242643E-003	7.8398781E-004	1.7140650E-003	2.7218502E+001	8.1711060E+002	1.5886632E+003	1.7864827E+003	-6.2781498E+001	0.0000000E+000	0.0000000E+000	0.0000000E+000	6.2781498E+001	0.0000000E+000	0.0000000E+000	0.0000000E+000	-6.2781498E+001	0.0000000E+000	0.0000000E+000	0.0000000E+000	-2.7218502E+001	0.0000000E+000	0.0000000E+000	0.0000000E+000	2.7218502E+001	1.9442450E+000	6.2781494E+001	-5.439734251443351E-007	-1.1912641E-006	7.1422445E+004
1.0423288E+002	5.8657953E+002	2.2479271E+002	6.2817780E+002	-2.0968145E+001	4.001123494040803E+001	2.9168695E-001	-4.1108835E-003	6.7925553E+000	8.6982614E-001	1.000000000000000E+000	12	9.1846343E-003	1.4621075E-005	0	-5.381618100073067E-005	1.4864892E-003	5.6966173E-004	1.5919060E-003	2.0968145E+001	8.6982617E+002	2.2697454E+003	2.4307080E+003	-6.9031853E+001	0.0000000E+000	0.0000000E+000	0.0000000E+000	6.9031853E+001	0.0000000E+000	0.0000000E+000	0.0000000E+000	-6.9031853E+001	0.0000000E+000	0.0000000E+000	0.0000000E+000	-2.0968145E+001	0.0000000E+000	0.0000000E+000	0.0000000E+000	2.0968145E+001	2.6094241E+000	6.9031853E+001	-5.124505798211325E-007	-1.1990911E-006	7.0954813E+004
7.1207657E+001	6.3188721E+002	1.8333824E+002	6.5794708E+002	-1.6179766E+001	4.047237432232942E+001	2.9169202E-001	-4.0498478E-003	1.2191030E+001	9.4659579E-001	1.000000000000000E+000	12	9.1826105E-003	1.3956458E-005	0	-5.433483292436621E-005	1.4596799E-003	4.2351728E-004	1.5198791E-003	1.6179766E+001	9.4659576E+002	3.2625044E+003	3.3970544E+003	-7.3820236E+001	0.0000000E+000	0.0000000E+000	0.0000000E+000	7.3820236E+001	0.0000000E+000	0.0000000E+000	0.0000000E+000	-7.3820236E+001	0.0000000E+000	0.0000000E+000	0.0000000E+000	-1.6179766E+001	0.0000000E+000	0.0000000E+000	0.0000000E+000	1.6179766E+001	3.4465652E+000	7.3820236E+001	-5.186519236355424E-007	-1.1813083E-006	7.2025430E+004
4.8645706E+001	6.6518469E+002	1.5008037E+002	6.8190527E+002	-1.2714305E+001	4.095233015847043E+001	2.9169714E-001	-4.0180534E-003	2.1799761E+001	1.0559696E+000	1.000000000000000E+000	12	9.1786580E-003	1.3460312E-005	0	-5.485862798793156E-005	1.4305208E-003	3.2275709E-004	1.4664794E-003	1.2714305E+001	1.0559694E+003	4.6802578E+003	4.7979043E+003	-7.7285698E+001	0.0000000E+000	0.0000000E+000	0.0000000E+000	7.7285698E+001	0.0000000E+000	0.0000000E+000	0.0000000E+000	-7.7285698E+001	0.0000000E+000	0.0000000E+000	0.0000000E+000	-1.2714305E+001	0.0000000E+000	0.0000000E+000	0.0000000E+000	1.2714305E+001	4.4321899E+000	7.7285698E+001	-5.237950635653534E-007	-1.1720547E-006	7.2596633E+004
3.3224487E+001	6.8857056E+002	1.2763891E+002	7.0030072E+002	-1.0501601E+001	4.144243052837555E+001	2.9169005E-001	-4.0343045E-003	3.7530018E+001	1.2467396E+000	1.000000000000000E+000	12	9.1834003E-003	1.3113510E-005	0	-5.540678088368683E-005	1.4040394E-003	2.6026391E-004	1.4279580E-003	1.0501601E+001	1.2467399E+003	6.7257568E+003	6.8403335E+003	-7.9498398E+001	0.0000000E+000	0.0000000E+000	0.0000000E+000	7.9498398E+001	0.0000000E+000	0.0000000E+000	0.0000000E+000	-7.9498398E+001	0.0000000E+000	0.0000000E+000	0.0000000E+000	-1.0501601E+001	0.0000000E+000	0.0000000E+000	0.0000000E+000	1.0501601E+001	5.3946762E+000	7.9498398E+001	-5.481528957552696E-007	-1.1767665E-006	7.2302438E+004
2.2658066E+001	7.0740234E+002	1.1130051E+002	7.1610468E+002	-8.9414406E+000	4.195442772601382E+001	2.9169470E-001	-3.9853361E-003	6.3110291E+001	1.5245491E+000	1.000000000000000E+000	12	9.1872718E-003	1.2829510E-005	0	-5.592177035831325E-005	1.3794739E-003	2.1704218E-004	1.3964439E-003	8.9414406E+000	1.5245485E+003	9.6897109E+003	9.8089111E+003	-8.1058563E+001	0.0000000E+000	0.0000000E+000	0.0000000E+000	8.1058563E+001	0.0000000E+000	0.0000000E+000	0.0000000E+000	-8.1058563E+001	0.0000000E+000	0.0000000E+000	0.0000000E+000	-8.9414406E+000	0.0000000E+000	0.0000000E+000	0.0000000E+000	8.9414406E+000	6.3557873E+000	8.1058563E+001	-5.149894746264155E-007	-1.1625015E-006	7.3192000E+004
1.5480518E+001	7.2183734E+002	1.0685709E+002	7.2970374E+002	-8.4206171E+000	4.240753478757688E+001	2.9168665E-001	-3.9959312E-003	9.6212448E+001	2.0632164E+000	1.000000000000000E+000	12	9.1863908E-003	1.2589207E-005	0	-5.640894111994869E-005	1.3556456E-003	2.0068280E-004	1.3704192E-003	8.4206171E+000	2.0632161E+003	1.3937368E+004	1.4089255E+004	-8.1579384E+001	0.0000000E+000	0.0000000E+000	0.0000000E+000	8.1579384E+001	0.0000000E+000	0.0000000E+000	0.0000000E+000	-8.1579384E+001	0.0000000E+000	0.0000000E+000	0.0000000E+000	-8.4206171E+000	0.0000000E+000	0.0000000E+000	0.0000000E+000	8.4206171E+000	6.7551661E+000	8.1579384E+001	-4.871707616354470E-007	-1.1655599E-006	7.2995914E+004
1.0571718E+001	7.3976324E+002	1.0584597E+002	7.4729712E+002	-8.1426649E+000	4.285192651537363E+001	2.9168487E-001	-4.0294402E-003	1.4223296E+002	2.8533974E+000	1.000000000000000E+000	12	9.1842934E-003	1.2290016E-005	0	-5.686190808966148E-005	1.3246652E-003	1.8953426E-004	1.3381558E-003	8.1426649E+000	2.8533965E+003	1.9942549E+004	2.0145648E+004	-8.1857338E+001	0.0000000E+000	0.0000000E+000	0.0000000E+000	8.1857338E+001	0.0000000E+000	0.0000000E+000	0.0000000E+000	-8.1857338E+001	0.0000000E+000	0.0000000E+000	0.0000000E+000	-8.1426649E+000	0.0000000E+000	0.0000000E+000	0.0000000E+000	8.1426649E+000	6.9890542E+000	8.1857338E+001	-4.529669697127855E-007	-1.1753267E-006	7.2388430E+004
7.2204247E+000	7.5953180E+002	1.1200930E+002	7.6774646E+002	-8.3890295E+000	4.319521005163551E+001	2.9169518E-001	-3.9435243E-003	1.9679013E+002	4.1886668E+000	1.000000000000000E+000	12	9.1839675E-003	1.1962240E-005	0	-5.736148226492898E-005	1.2885768E-003	1.9002837E-004	1.3025133E-003	8.3890295E+000	4.1886675E+003	2.8403229E+004	2.8710422E+004	-8.1610970E+001	0.0000000E+000	0.0000000E+000	0.0000000E+000	8.1610970E+001	0.0000000E+000	0.0000000E+000	0.0000000E+000	-8.1610970E+001	0.0000000E+000	0.0000000E+000	0.0000000E+000	-8.3890295E+000	0.0000000E+000	0.0000000E+000	0.0000000E+000	8.3890295E+000	6.7809711E+000	8.1610970E+001	-4.995741752675018E-007	-1.1503071E-006	7.3968148E+004
4.9321337E+000	7.8035138E+002	1.2235352E+002	7.8988519E+002	-8.9110193E+000	4.367250652765506E+001	2.9168802E-001	-4.0039080E-003	2.6373563E+002	6.3281074E+000	1.000000000000000E+000	12	9.1826012E-003	1.1625235E-005	0	-5.776458283920349E-005	1.2507262E-003	1.9610494E-004	1.2660067E-003	8.9110193E+000	6.3281069E+003	4.0359664E+004	4.0852754E+004	-8.1088982E+001	0.0000000E+000	0.0000000E+000	0.0000000E+000	8.1088982E+001	0.0000000E+000	0.0000000E+000	0.0000000E+000	-8.1088982E+001	0.0000000E+000	0.0000000E+000	0.0000000E+000	-8.9110193E+000	0.0000000E+000	0.0000000E+000	0.0000000E+000	8.9110193E+000	6.3778415E+000	8.1088982E+001	-4.031005742745041E-007	-1.1678920E-006	7.2850828E+004
3.3674569E+000	8.0427692E+002	1.3742946E+002	8.1593396E+002	-9.6966696E+000	4.469177329610102E+001	2.9168913E-001	-3.9918600E-003	3.4390482E+002	9.7563620E+000	1.000000000000000E+000	13	9.1882432E-003	1.1261013E-005	0	-5.884134883811284E-005	1.2080797E-003	2.0642858E-004	1.2255894E-003	9.6966696E+000	9.7563633E+003	5.7097055E+004	5.7924609E+004	-8.0303329E+001	0.0000000E+000	0.0000000E+000	0.0000000E+000	8.0303329E+001	0.0000000E+000	0.0000000E+000	0.0000000E+000	-8.0303329E+001	0.0000000E+000	0.0000000E+000	0.0000000E+000	-9.6966696E+000	0.0000000E+000	0.0000000E+000	0.0000000E+000	9.6966696E+000	5.8522892E+000	8.0303329E+001	-1.076765998909350E-006	-1.1643822E-006	7.3070984E+004
